(142.825380) 2 284#0000000000000000
(142.825630) 2 384#0000000000000000
(142.825882) 2 484#0000000000000000
(142.826126) 2 401#6C4E000000000000
(142.826371) 2 402#7A71000000000000
(142.826617) 2 403#423B000000000000
(142.833787) 2 080#
(142.834099) 2 381#6C4E0000FCFFFFFF
(142.834341) 2 382#7A710000FDFFFFFF
(142.834585) 2 383#423B0000FFFFFFFF
(142.835367) 2 284#0000000000000000
(142.835617) 2 384#0000000000000000
(142.835870) 2 484#0000000000000000
(142.836113) 2 401#6C4E000000000000
(142.836359) 2 402#7A71000000000000
(142.836604) 2 403#423B000000000000
(142.843176) 2 704#05
(142.843771) 2 080#
(142.844095) 2 381#6C4E0000FEFFFFFF
(142.844341) 2 382#7A71000002000000
(142.844583) 2 383#423B000000000000
(142.845382) 2 284#0000000000000000
(142.845632) 2 384#0000000000000000
(142.845884) 2 484#0000000000000000
(142.846128) 2 401#6C4E000000000000
(142.846373) 2 402#7A71000000000000
(142.846619) 2 403#423B000000000000
(142.853775) 2 080#
(142.854095) 2 381#6C4E0000FDFFFFFF
(142.854335) 2 382#79710000FCFFFFFF
(142.854581) 2 383#413B0000FDFFFFFF
(142.855367) 2 284#0000000000000000
(142.855618) 2 384#0000000000000000
(142.855870) 2 484#0000000000000000
(142.856113) 2 401#6C4E000000000000
(142.856359) 2 402#7A71000000000000
(142.856605) 2 403#423B000000000000
(142.863774) 2 080#
(142.864093) 2 381#6C4E0000FDFFFFFF
(142.864333) 2 382#7A710000FEFFFFFF
(142.864577) 2 383#413B0000FEFFFFFF
(142.865419) 2 284#0000000000000000
(142.865669) 2 384#0000000000000000
(142.865921) 2 484#0000000000000000
(142.866165) 2 401#6C4E000000000000
(142.866411) 2 402#7A71000000000000
(142.866656) 2 403#413B000000000000
(142.873764) 2 080#
(142.874092) 2 381#6C4E0000FBFFFFFF
(142.874339) 2 382#7A71000002000000
(142.874583) 2 383#413B0000FBFFFFFF
(142.875379) 2 284#0000000000000000
(142.875629) 2 384#0000000000000000
(142.875881) 2 484#0000000000000000
(142.876125) 2 401#6C4E000000000000
(142.876371) 2 402#7A71000000000000
(142.876616) 2 403#413B000000000000
(142.883764) 2 080#
(142.884086) 2 381#6C4E0000FAFFFFFF
(142.884328) 2 382#7A710000FFFFFFFF
(142.884570) 2 383#423B000003000000
(142.885365) 2 284#0000000000000000
(142.885615) 2 384#0000000000000000
(142.885867) 2 484#0000000000000000
(142.886111) 2 401#6C4E000000000000
(142.886356) 2 402#7A71000000000000
(142.886602) 2 403#413B000000000000
(142.893754) 2 080#
(142.894088) 2 381#6C4E000000000000
(142.894332) 2 382#7A71000005000000
(142.894576) 2 383#423B000004000000
(142.895418) 2 284#0000000000000000
(142.895669) 2 384#0000000000000000
(142.895921) 2 484#0000000000000000
(142.896164) 2 401#6C4E000000000000
(142.896410) 2 402#7A71000000000000
(142.896656) 2 403#413B000000000000
(142.903746) 2 080#
(142.904082) 2 381#6C4E0000F4FFFFFF
(142.904324) 2 382#7A710000FDFFFFFF
(142.904570) 2 383#413B000001000000
(142.905378) 2 284#0000000000000000
(142.905629) 2 384#0000000000000000
(142.905881) 2 484#0000000000000000
(142.906124) 2 401#6C4E000000000000
(142.906370) 2 402#7A71000000000000
(142.906615) 2 403#413B000000000000
(142.913746) 2 080#
(142.914078) 2 381#6C4E0000FDFFFFFF
(142.914322) 2 382#7A71000005000000
(142.914566) 2 383#423B000004000000
(142.915362) 2 284#0000000000000000
(142.915612) 2 384#0000000000000000
(142.915865) 2 484#0000000000000000
(142.916108) 2 401#6C4E000000000000
(142.916354) 2 402#7A71000000000000
(142.916599) 2 403#413B000000000000
(142.923737) 2 080#
(142.924077) 2 381#6C4E0000F8FFFFFF
(142.924324) 2 382#7A71000002000000
(142.924570) 2 383#413B0000F9FFFFFF
(142.925420) 2 284#0000000000000000
(142.925670) 2 384#0000000000000000
(142.925914) 2 401#6C4E000000000000
(142.926159) 2 402#7A71000000000000
(142.926405) 2 403#413B000000000000
(142.926657) 2 484#0000000000000000
(142.933751) 2 080#
(142.934071) 2 381#6C4E0000FCFFFFFF
(142.934313) 2 382#7A710000FCFFFFFF
(142.934560) 2 383#413B0000FDFFFFFF
(142.935378) 2 284#0000000000000000
(142.935628) 2 384#0000000000000000
(142.935880) 2 484#0000000000000000
(142.936124) 2 401#6C4E000000000000
(142.936369) 2 402#7A71000000000000
(142.936615) 2 403#413B000000000000
(142.943719) 2 080#
(142.944071) 2 381#6D4E000002000000
(142.944317) 2 382#7A71000002000000
(142.944559) 2 383#423B000002000000
(142.945364) 2 284#0000000000000000
(142.945614) 2 384#0000000000000000
(142.945866) 2 484#0000000000000000
(142.946110) 2 401#6C4E000000000000
(142.946355) 2 402#7A71000000000000
(142.946601) 2 403#423B000000000000
(142.953725) 2 080#
(142.954053) 2 381#6C4E000000000000
(142.954297) 2 382#79710000FAFFFFFF
(142.954539) 2 383#423B000000000000
(142.955422) 2 284#0000000000000000
(142.955672) 2 384#0000000000000000
(142.955915) 2 401#6C4E000000000000
(142.956161) 2 402#7A71000000000000
(142.956407) 2 403#423B000000000000
(142.956659) 2 484#0000000000000000
(142.963709) 2 080#
(142.964053) 2 381#6C4E000000000000
(142.964295) 2 382#7A710000FFFFFFFF
(142.964538) 2 383#423B000001000000
(142.965380) 2 284#0000000000000000
(142.965630) 2 384#0000000000000000
(142.965882) 2 484#0000000000000000
(142.966126) 2 401#6C4E000000000000
(142.966371) 2 402#7A71000000000000
(142.966617) 2 403#423B000000000000
(142.973709) 2 080#
(142.974015) 2 381#6D4E000002000000
(142.974257) 2 382#7A710000FDFFFFFF
(142.974499) 2 383#423B000001000000
(142.975414) 2 284#0000000000000000
(142.975664) 2 384#0000000000000000
(142.975908) 2 401#6C4E000000000000
(142.976153) 2 402#7A71000000000000
(142.976399) 2 403#423B000000000000
(142.976651) 2 484#0000000000000000
(142.983709) 2 080#
(142.984013) 2 381#6C4E0000FBFFFFFF
(142.984253) 2 382#7A71000003000000
(142.984497) 2 383#423B0000FEFFFFFF
(142.985396) 2 284#0000000000000000
(142.985646) 2 384#0000000000000000
(142.985889) 2 401#6C4E000000000000
(142.986135) 2 402#7A71000000000000
(142.986380) 2 403#423B000000000000
(142.986633) 2 484#0000000000000000
(142.993703) 2 080#
(142.994009) 2 381#6D4E000006000000
(142.994251) 2 382#7A710000FDFFFFFF
(142.994495) 2 383#423B0000FFFFFFFF
(142.995380) 2 284#0000000000000000
(142.995630) 2 384#0000000000000000
(142.995873) 2 401#6C4E000000000000
(142.996119) 2 402#7A71000000000000
(142.996364) 2 403#423B000000000000
(142.996617) 2 484#0000000000000000
(143.003691) 2 080#
(143.004005) 2 381#6C4E0000FFFFFFFF
(143.004245) 2 382#7A71000003000000
(143.004489) 2 383#423B0000FEFFFFFF
(143.005363) 2 284#0000000000000000
(143.005614) 2 384#0000000000000000
(143.005866) 2 484#0000000000000000
(143.006109) 2 401#6C4E000000000000
(143.006355) 2 402#7A71000000000000
(143.006601) 2 403#423B000000000000
(143.013685) 2 080#
(143.014001) 2 381#6D4E000006000000
(143.014245) 2 382#79710000FBFFFFFF
(143.014489) 2 383#413B0000F1FFFFFF
(143.015415) 2 284#0000000000000000
(143.015666) 2 384#0000000000000000
(143.015909) 2 401#6C4E000000000000
(143.016155) 2 402#7A71000000000000
(143.016400) 2 403#423B000000000000
(143.016653) 2 484#0000000000000000
(143.023673) 2 080#
(143.023999) 2 381#6C4E0000FEFFFFFF
(143.024241) 2 382#7A710000FDFFFFFF
(143.024485) 2 383#413B0000FEFFFFFF
(143.025375) 2 284#0000000000000000
(143.025626) 2 384#0000000000000000
(143.025869) 2 401#6C4E000000000000
(143.026115) 2 402#7A71000000000000
(143.026360) 2 403#423B000000000000
(143.026613) 2 484#0000000000000000
(143.033679) 2 080#
(143.033999) 2 381#6C4E0000FBFFFFFF
(143.034241) 2 382#7A71000000000000
(143.034483) 2 383#423B000003000000
(143.035357) 2 284#0000000000000000
(143.035607) 2 384#0000000000000000
(143.035851) 2 401#6C4E000000000000
(143.036097) 2 402#7A71000000000000
(143.036342) 2 403#423B000000000000
(143.036594) 2 484#0000000000000000
(143.043239) 2 704#05
(143.043660) 2 080#
(143.043996) 2 381#6D4E000004000000
(143.044238) 2 382#79710000F9FFFFFF
(143.044482) 2 383#413B0000FFFFFFFF
(143.045374) 2 284#0000000000000000
(143.045624) 2 384#0000000000000000
(143.045877) 2 484#0000000000000000
(143.046120) 2 401#6D4E000000000000
(143.046366) 2 402#7A71000000000000
(143.046611) 2 403#423B000000000000
(143.053666) 2 080#
(143.053992) 2 381#6C4E0000FCFFFFFF
(143.054232) 2 382#7A71000001000000
(143.054476) 2 383#423B0000FEFFFFFF
(143.055358) 2 284#0000000000000000
(143.055609) 2 384#0000000000000000
(143.055852) 2 401#6D4E000000000000
(143.056098) 2 402#7A71000000000000
(143.056343) 2 403#423B000000000000
(143.056596) 2 484#0000000000000000
(143.063658) 2 080#
(143.063990) 2 381#6D4E000003000000
(143.064232) 2 382#7A710000FFFFFFFF
(143.064476) 2 383#423B0000FEFFFFFF
(143.065410) 2 284#0000000000000000
(143.065661) 2 384#0000000000000000
(143.065904) 2 401#6D4E000000000000
(143.066150) 2 402#7A71000000000000
(143.066395) 2 403#423B000000000000
(143.066648) 2 484#0000000000000000
(143.073656) 2 080#
(143.073992) 2 381#6C4E000000000000
(143.074234) 2 382#7A710000FDFFFFFF
(143.074478) 2 383#423B000009000000
(143.075395) 2 284#0000000000000000
(143.075645) 2 384#0000000000000000
(143.075888) 2 401#6D4E000000000000
(143.076134) 2 402#7A71000000000000
(143.076380) 2 403#423B000000000000
(143.076632) 2 484#0000000000000000
(143.083654) 2 080#
(143.083988) 2 381#6D4E000005000000
(143.084230) 2 382#7A71000000000000
(143.084472) 2 383#413B0000FAFFFFFF
(143.085374) 2 284#0000000000000000
(143.085625) 2 384#0000000000000000
(143.085868) 2 401#6D4E000000000000
(143.086114) 2 402#7A71000000000000
(143.086359) 2 403#423B000000000000
(143.086612) 2 484#0000000000000000
(143.093646) 2 080#
(143.093986) 2 381#6C4E0000FEFFFFFF
(143.094232) 2 382#7A71000002000000
(143.094476) 2 383#413B0000FCFFFFFF
(143.095360) 2 284#0000000000000000
(143.095611) 2 384#0000000000000000
(143.095854) 2 401#6D4E000000000000
(143.096100) 2 402#7A71000000000000
(143.096346) 2 403#423B000000000000
(143.096598) 2 484#0000000000000000
(143.103632) 2 080#
(143.103978) 2 381#6C4E0000FEFFFFFF
(143.104220) 2 382#7A710000FDFFFFFF
(143.104462) 2 383#423B000001000000
(143.105413) 2 284#0000000000000000
(143.105663) 2 384#0000000000000000
(143.105907) 2 401#6D4E000000000000
(143.106152) 2 402#7A71000000000000
(143.106398) 2 403#423B000000000000
(143.106650) 2 484#0000000000000000
(143.113654) 2 080#
(143.113968) 2 381#6C4E0000FBFFFFFF
(143.114211) 2 382#79710000F9FFFFFF
(143.114455) 2 383#413B0000FBFFFFFF
(143.115395) 2 284#0000000000000000
(143.115645) 2 384#0000000000000000
(143.115889) 2 401#6C4E000000000000
(143.116134) 2 402#7A71000000000000
(143.116380) 2 403#423B000000000000
(143.116632) 2 484#0000000000000000
(143.123618) 2 080#
(143.123962) 2 381#6C4E0000FAFFFFFF
(143.124203) 2 382#7A71000001000000
(143.124447) 2 383#423B000004000000
(143.125375) 2 284#0000000000000000
(143.125625) 2 384#0000000000000000
(143.125869) 2 401#6C4E000000000000
(143.126114) 2 402#7A71000000000000
(143.126360) 2 403#423B000000000000
(143.126612) 2 484#0000000000000000
(143.133622) 2 080#
(143.133920) 2 381#6D4E000004000000
(143.134163) 2 382#79710000F8FFFFFF
(143.134407) 2 383#423B0000FEFFFFFF
(143.135407) 2 284#0000000000000000
(143.135657) 2 384#0000000000000000
(143.135901) 2 401#6C4E000000000000
(143.136146) 2 402#7A71000000000000
(143.136392) 2 403#423B000000000000
(143.136644) 2 484#0000000000000000
(143.143593) 2 080#
(143.143921) 2 381#6D4E000002000000
(143.144163) 2 382#7A71000000000000
(143.144407) 2 383#413B0000FBFFFFFF
(143.145393) 2 284#0000000000000000
(143.145644) 2 384#0000000000000000
(143.145887) 2 401#6D4E000000000000
(143.146133) 2 402#7A71000000000000
(143.146378) 2 403#423B000000000000
(143.146630) 2 484#0000000000000000
(143.153607) 2 080#
(143.153913) 2 381#6C4E000002000000
(143.154153) 2 382#7A71000001000000
(143.154397) 2 383#423B0000FFFFFFFF
(143.155374) 2 284#0000000000000000
(143.155624) 2 384#0000000000000000
(143.155867) 2 401#6D4E000000000000
(143.156113) 2 402#7A71000000000000
(143.156358) 2 403#423B000000000000
(143.156611) 2 484#0000000000000000
(143.163605) 2 080#
(143.163911) 2 381#6D4E000003000000
(143.164151) 2 382#7A710000FEFFFFFF
(143.164393) 2 383#413B0000F6FFFFFF
(143.165405) 2 284#0000000000000000
(143.165656) 2 384#0000000000000000
(143.165899) 2 401#6D4E000000000000
(143.166145) 2 402#7A71000000000000
(143.166390) 2 403#423B000000000000
(143.166643) 2 484#0000000000000000
(143.173599) 2 080#
(143.173907) 2 381#6C4E0000FAFFFFFF
(143.174149) 2 382#7A710000FCFFFFFF
(143.174391) 2 383#423B000000000000
(143.175388) 2 284#0000000000000000
(143.175638) 2 384#0000000000000000
(143.175881) 2 401#6D4E000000000000
(143.176127) 2 402#7A71000000000000
(143.176372) 2 403#423B000000000000
(143.176625) 2 484#0000000000000000
(143.183631) 2 080#
(143.183909) 2 381#6C4E0000F6FFFFFF
(143.184151) 2 382#7A710000FFFFFFFF
(143.184395) 2 383#413B0000F5FFFFFF
(143.185372) 2 284#0000000000000000
(143.185622) 2 384#0000000000000000
(143.185865) 2 401#6C4E000000000000
(143.186111) 2 402#7A71000000000000
(143.186356) 2 403#423B000000000000
(143.186609) 2 484#0000000000000000
(143.193589) 2 080#
(143.193905) 2 381#6C4E0000FDFFFFFF
(143.194147) 2 382#7A710000FFFFFFFF
(143.194391) 2 383#413B0000FCFFFFFF
(143.195358) 2 284#0000000000000000
(143.195608) 2 384#0000000000000000
(143.195852) 2 401#6C4E000000000000
(143.196097) 2 402#7A71000000000000
(143.196343) 2 403#413B000000000000
(143.196595) 2 484#0000000000000000
(143.203589) 2 080#
(143.203901) 2 381#6D4E000001000000
(143.204145) 2 382#7A71000004000000
(143.204390) 2 383#423B0000FFFFFFFF
(143.205414) 2 284#0000000000000000
(143.205664) 2 384#0000000000000000
(143.205908) 2 401#6C4E000000000000
(143.206153) 2 402#7A71000000000000
(143.206399) 2 403#423B000000000000
(143.206651) 2 484#0000000000000000
(143.213581) 2 080#
(143.213904) 2 381#6D4E000002000000
(143.214146) 2 382#7A710000FFFFFFFF
(143.214392) 2 383#413B0000FDFFFFFF
(143.215372) 2 284#0000000000000000
(143.215622) 2 384#0000000000000000
(143.215866) 2 401#6D4E000000000000
(143.216111) 2 402#7A71000000000000
(143.216357) 2 403#423B000000000000
(143.216609) 2 484#0000000000000000
(143.223548) 2 080#
(143.223898) 2 381#6C4E000002000000
(143.224138) 2 382#7A710000FEFFFFFF
(143.224380) 2 383#423B000000000000
(143.225405) 2 284#0000000000000000
(143.225655) 2 384#0000000000000000
(143.225898) 2 401#6D4E000000000000
(143.226144) 2 402#7A71000000000000
(143.226389) 2 403#423B000000000000
(143.226642) 2 484#0000000000000000
(143.233572) 2 080#
(143.233880) 2 381#6C4E0000FAFFFFFF
(143.234122) 2 382#7A710000FFFFFFFF
(143.234366) 2 383#413B0000FBFFFFFF
(143.235385) 2 284#0000000000000000
(143.235635) 2 384#0000000000000000
(143.235878) 2 401#6D4E000000000000
(143.236124) 2 402#7A71000000000000
(143.236370) 2 403#423B000000000000
(143.236622) 2 484#0000000000000000
(143.243196) 2 704#05
(143.243547) 2 080#
(143.243879) 2 381#6C4E0000FAFFFFFF
(143.244120) 2 382#7A71000001000000
(143.244362) 2 383#423B000000000000
(143.245400) 2 284#0000000000000000
(143.245650) 2 384#0000000000000000
(143.245903) 2 484#0000000000000000
(143.246146) 2 401#6D4E000000000000
(143.246391) 2 402#7A71000000000000
(143.246637) 2 403#423B000000000000
(143.253554) 2 080#
(143.253882) 2 381#6D4E000002000000
(143.254124) 2 382#7A710000FCFFFFFF
(143.254368) 2 383#413B0000FCFFFFFF
(143.255382) 2 284#0000000000000000
(143.255632) 2 384#0000000000000000
(143.255876) 2 401#6D4E000000000000
(143.256122) 2 402#7A71000000000000
(143.256367) 2 403#413B000000000000
(143.256620) 2 484#0000000000000000
(143.263548) 2 080#
(143.263882) 2 381#6D4E000002000000
(143.264128) 2 382#7A71000002000000
(143.264370) 2 383#413B0000F4FFFFFF
(143.265369) 2 284#0000000000000000
(143.265619) 2 384#0000000000000000
(143.265862) 2 401#6D4E000000000000
(143.266108) 2 402#7A71000000000000
(143.266353) 2 403#413B000000000000
(143.266606) 2 484#0000000000000000
(143.273548) 2 080#
(143.273880) 2 381#6C4E0000FFFFFFFF
(143.274122) 2 382#79710000F9FFFFFF
(143.274366) 2 383#423B0000FFFFFFFF
(143.275351) 2 284#0000000000000000
(143.275601) 2 384#0000000000000000
(143.275844) 2 401#6D4E000000000000
(143.276090) 2 402#7A71000000000000
(143.276335) 2 403#413B000000000000
(143.276588) 2 484#0000000000000000
(143.283540) 2 080#
(143.283880) 2 381#6C4E000000000000
(143.284124) 2 382#79710000FBFFFFFF
(143.284369) 2 383#413B0000FFFFFFFF
(143.285405) 2 284#0000000000000000
(143.285655) 2 384#0000000000000000
(143.285898) 2 401#6C4E000000000000
(143.286144) 2 402#7A71000000000000
(143.286390) 2 403#413B000000000000
(143.286642) 2 484#0000000000000000
(143.293535) 2 080#
(143.293875) 2 381#6C4E0000FBFFFFFF
(143.294117) 2 382#7A710000FFFFFFFF
(143.294361) 2 383#413B0000FFFFFFFF
(143.295345) 2 284#0000000000000000
(143.295595) 2 384#0000000000000000
(143.295839) 2 401#6C4E000000000000
(143.296085) 2 402#7A71000000000000
(143.296330) 2 403#413B000000000000
(143.296583) 2 484#0000000000000000
(143.303521) 2 080#
(143.303869) 2 381#6C4E0000FDFFFFFF
(143.304111) 2 382#7A710000FFFFFFFF
(143.304353) 2 383#423B000000000000
(143.305370) 2 284#0000000000000000
(143.305620) 2 384#0000000000000000
(143.305863) 2 401#6C4E000000000000
(143.306109) 2 402#7A71000000000000
(143.306355) 2 403#413B000000000000
(143.306607) 2 484#0000000000000000
(143.313523) 2 080#
(143.313821) 2 381#6C4E0000FAFFFFFF
(143.314064) 2 382#7A71000007000000
(143.314308) 2 383#413B0000FFFFFFFF
(143.315402) 2 284#0000000000000000
(143.315652) 2 384#0000000000000000
(143.315896) 2 401#6C4E000000000000
(143.316141) 2 402#7A71000000000000
(143.316387) 2 403#413B000000000000
(143.316639) 2 484#0000000000000000
(143.323522) 2 080#
(143.323822) 2 381#6D4E000004000000
(143.324064) 2 382#79710000F8FFFFFF
(143.324306) 2 383#413B0000F8FFFFFF
(143.325382) 2 284#0000000000000000
(143.325632) 2 384#0000000000000000
(143.325876) 2 401#6C4E000000000000
(143.326121) 2 402#7A71000000000000
(143.326367) 2 403#413B000000000000
(143.326619) 2 484#0000000000000000
(143.333512) 2 080#
(143.333854) 2 381#6C4E0000FFFFFFFF
(143.334096) 2 382#79710000FDFFFFFF
(143.334340) 2 383#413B0000FEFFFFFF
(143.335368) 2 284#0000000000000000
(143.335619) 2 384#0000000000000000
(143.335862) 2 401#6C4E000000000000
(143.336108) 2 402#7A71000000000000
(143.336353) 2 403#413B000000000000
(143.336606) 2 484#0000000000000000
(143.343484) 2 080#
(143.343814) 2 381#6C4E0000F8FFFFFF
(143.344056) 2 382#7A71000000000000
(143.344303) 2 383#413B0000FDFFFFFF
(143.345401) 2 284#0000000000000000
(143.345651) 2 384#0000000000000000
(143.345895) 2 401#6C4E000000000000
(143.346140) 2 402#7A71000000000000
(143.346386) 2 403#413B000000000000
(143.346638) 2 484#0000000000000000
(143.353501) 2 080#
(143.353811) 2 381#6C4E0000FDFFFFFF
(143.354053) 2 382#7A71000000000000
(143.354295) 2 383#423B000002000000
(143.355385) 2 284#0000000000000000
(143.355636) 2 384#0000000000000000
(143.355879) 2 401#6C4E000000000000
(143.356125) 2 402#7A71000000000000
(143.356370) 2 403#413B000000000000
(143.356623) 2 484#0000000000000000
(143.363509) 2 080#
(143.363815) 2 381#6C4E0000FFFFFFFF
(143.364059) 2 382#7A71000004000000
(143.364303) 2 383#413B0000FCFFFFFF
(143.365367) 2 284#0000000000000000
(143.365618) 2 384#0000000000000000
(143.365861) 2 401#6C4E000000000000
(143.366107) 2 402#7A71000000000000
(143.366352) 2 403#413B000000000000
(143.366605) 2 484#0000000000000000
(143.373489) 2 080#
(143.373809) 2 381#6C4E0000FFFFFFFF
(143.374050) 2 382#7A710000FEFFFFFF
(143.374296) 2 383#413B0000F3FFFFFF
(143.375354) 2 284#0000000000000000
(143.375604) 2 384#0000000000000000
(143.375848) 2 401#6C4E000000000000
(143.376093) 2 402#7A71000000000000
(143.376339) 2 403#413B000000000000
(143.376591) 2 484#0000000000000000
(143.383462) 2 080#
(143.383806) 2 381#6D4E000003000000
(143.384046) 2 382#7A71000001000000
(143.384290) 2 383#413B0000F2FFFFFF
(143.385380) 2 284#0000000000000000
(143.385631) 2 384#0000000000000000
(143.385874) 2 401#6C4E000000000000
(143.386120) 2 402#7A71000000000000
(143.386365) 2 403#413B000000000000
(143.386618) 2 484#0000000000000000
(143.393486) 2 080#
(143.393796) 2 381#6D4E000002000000
(143.394036) 2 382#7A710000FEFFFFFF
(143.394278) 2 383#423B000000000000
(143.395367) 2 284#0000000000000000
(143.395617) 2 384#0000000000000000
(143.395861) 2 401#6C4E000000000000
(143.396106) 2 402#7A71000000000000
(143.396352) 2 403#413B000000000000
(143.396604) 2 484#0000000000000000
(143.403475) 2 080#
(143.403791) 2 381#6C4E0000FAFFFFFF
(143.404031) 2 382#7A710000FEFFFFFF
(143.404273) 2 383#423B000000000000
(143.405399) 2 284#0000000000000000
(143.405649) 2 384#0000000000000000
(143.405893) 2 401#6C4E000000000000
(143.406138) 2 402#7A71000000000000
(143.406384) 2 403#413B000000000000
(143.406636) 2 484#0000000000000000
(143.413471) 2 080#
(143.413795) 2 381#6C4E000000000000
(143.414037) 2 382#79710000F9FFFFFF
(143.414281) 2 383#413B0000F2FFFFFF
(143.415378) 2 284#0000000000000000
(143.415628) 2 384#0000000000000000
(143.415871) 2 401#6C4E000000000000
(143.416117) 2 402#7A71000000000000
(143.416363) 2 403#413B000000000000
(143.416615) 2 484#0000000000000000
(143.423452) 2 080#
(143.423792) 2 381#6D4E000003000000
(143.424034) 2 382#79710000F8FFFFFF
(143.424276) 2 383#423B000000000000
(143.425364) 2 284#0000000000000000
(143.425615) 2 384#0000000000000000
(143.425858) 2 401#6C4E000000000000
(143.426104) 2 402#7A71000000000000
(143.426349) 2 403#413B000000000000
(143.426602) 2 484#0000000000000000
(143.433456) 2 080#
(143.433784) 2 381#6C4E0000FEFFFFFF
(143.434028) 2 382#7A71000006000000
(143.434270) 2 383#423B0000FDFFFFFF
(143.435351) 2 284#0000000000000000
(143.435601) 2 384#0000000000000000
(143.435845) 2 401#6C4E000000000000
(143.436090) 2 402#7A71000000000000
(143.436336) 2 403#413B000000000000
(143.436588) 2 484#0000000000000000
(143.443228) 2 704#05
(143.443438) 2 080#
(143.443784) 2 381#6C4E0000FCFFFFFF
(143.444028) 2 382#7A71000004000000
(143.444270) 2 383#423B000002000000
(143.445362) 2 284#0000000000000000
(143.445613) 2 384#0000000000000000
(143.445856) 2 401#6C4E000000000000
(143.446101) 2 402#7A71000000000000
(143.446347) 2 403#423B000000000000
(143.446599) 2 484#0000000000000000
(143.453446) 2 080#
(143.453774) 2 381#6D4E000002000000
(143.454014) 2 382#7A71000003000000
(143.454256) 2 383#423B000003000000
(143.455347) 2 284#0000000000000000
(143.455597) 2 384#0000000000000000
(143.455840) 2 401#6C4E000000000000
(143.456086) 2 402#7A71000000000000
(143.456331) 2 403#423B000000000000
(143.456584) 2 484#0000000000000000
(143.463436) 2 080#
(143.463771) 2 381#6C4E000002000000
(143.464015) 2 382#7A71000006000000
(143.464259) 2 383#413B0000FEFFFFFF
(143.465401) 2 284#0000000000000000
(143.465651) 2 384#0000000000000000
(143.465895) 2 401#6C4E000000000000
(143.466140) 2 402#7A71000000000000
(143.466386) 2 403#423B000000000000
(143.466638) 2 484#0000000000000000
(143.473433) 2 080#
(143.473771) 2 381#6C4E0000F8FFFFFF
(143.474013) 2 382#7A710000FFFFFFFF
(143.474255) 2 383#423B000001000000
(143.475364) 2 284#0000000000000000
(143.475614) 2 384#0000000000000000
(143.475857) 2 401#6C4E000000000000
(143.476103) 2 402#7A71000000000000
(143.476349) 2 403#423B000000000000
(143.476601) 2 484#0000000000000000
(143.483428) 2 080#
(143.483768) 2 381#6C4E000000000000
(143.484010) 2 382#7A710000FFFFFFFF
(143.484252) 2 383#423B000003000000
(143.485396) 2 284#0000000000000000
(143.485646) 2 384#0000000000000000
(143.485890) 2 401#6C4E000000000000
(143.486135) 2 402#7A71000000000000
(143.486381) 2 403#423B000000000000
(143.486633) 2 484#0000000000000000
(143.493426) 2 080#
(143.493760) 2 381#6D4E000004000000
(143.494000) 2 382#7A71000001000000
(143.494242) 2 383#423B000000000000
(143.495383) 2 284#0000000000000000
(143.495633) 2 384#0000000000000000
(143.495876) 2 401#6D4E000000000000
(143.496122) 2 402#7A71000000000000
(143.496368) 2 403#423B000000000000
(143.496620) 2 484#0000000000000000
(143.503417) 2 080#
(143.503761) 2 381#6C4E0000FEFFFFFF
(143.504005) 2 382#7A71000004000000
(143.504247) 2 383#423B000001000000
(143.505363) 2 284#0000000000000000
(143.505613) 2 384#0000000000000000
(143.505857) 2 401#6C4E000000000000
(143.506102) 2 402#7A71000000000000
(143.506348) 2 403#423B000000000000
(143.506600) 2 484#0000000000000000
(143.513413) 2 080#
(143.513719) 2 381#6C4E0000FEFFFFFF
(143.513963) 2 382#79710000FBFFFFFF
(143.514209) 2 383#413B0000FDFFFFFF
(143.515348) 2 284#0000000000000000
(143.515598) 2 384#0000000000000000
(143.515841) 2 401#6C4E000000000000
(143.516087) 2 402#7A71000000000000
(143.516333) 2 403#423B000000000000
(143.516585) 2 484#0000000000000000
(143.523386) 2 080#
(143.523716) 2 381#6C4E0000FEFFFFFF
(143.523958) 2 382#7A71000000000000
(143.524200) 2 383#423B000003000000
(143.525400) 2 284#0000000000000000
(143.525651) 2 384#0000000000000000
(143.525894) 2 401#6C4E000000000000
(143.526140) 2 402#7A71000000000000
(143.526385) 2 403#423B000000000000
(143.526638) 2 484#0000000000000000
(143.533408) 2 080#
(143.533714) 2 381#6C4E0000FEFFFFFF
(143.533957) 2 382#7A710000FFFFFFFF
(143.534199) 2 383#413B0000F8FFFFFF
(143.535361) 2 284#0000000000000000
(143.535611) 2 384#0000000000000000
(143.535855) 2 401#6C4E000000000000
(143.536100) 2 402#7A71000000000000
(143.536346) 2 403#423B000000000000
(143.536598) 2 484#0000000000000000
(143.543389) 2 080#
(143.543711) 2 381#6D4E000001000000
(143.543951) 2 382#7A71000001000000
(143.544193) 2 383#423B000001000000
(143.545394) 2 284#0000000000000000
(143.545644) 2 384#0000000000000000
(143.545887) 2 401#6C4E000000000000
(143.546133) 2 402#7A71000000000000
(143.546378) 2 403#423B000000000000
(143.546631) 2 484#0000000000000000
(143.553390) 2 080#
(143.553712) 2 381#6D4E000003000000
(143.553956) 2 382#79710000FBFFFFFF
(143.554198) 2 383#423B000000000000
(143.555376) 2 284#0000000000000000
(143.555627) 2 384#0000000000000000
(143.555870) 2 401#6C4E000000000000
(143.556116) 2 402#7A71000000000000
(143.556361) 2 403#423B000000000000
(143.556614) 2 484#0000000000000000
(143.563364) 2 080#
(143.563710) 2 381#6C4E0000FBFFFFFF
(143.563952) 2 382#7A710000FFFFFFFF
(143.564197) 2 383#413B0000FBFFFFFF
(143.565361) 2 284#0000000000000000
(143.565611) 2 384#0000000000000000
(143.565855) 2 401#6C4E000000000000
(143.566100) 2 402#7A71000000000000
(143.566346) 2 403#423B000000000000
(143.566598) 2 484#0000000000000000
(143.573391) 2 080#
(143.573699) 2 381#6C4E0000FDFFFFFF
(143.573939) 2 382#7A71000001000000
(143.574185) 2 383#413B0000FDFFFFFF
(143.575391) 2 284#0000000000000000
(143.575642) 2 384#0000000000000000
(143.575885) 2 401#6C4E000000000000
(143.576131) 2 402#7A71000000000000
(143.576376) 2 403#423B000000000000
(143.576629) 2 484#0000000000000000
(143.583370) 2 080#
(143.583696) 2 381#6C4E0000FDFFFFFF
(143.583936) 2 382#7A71000003000000
(143.584178) 2 383#413B0000F8FFFFFF
(143.585376) 2 284#0000000000000000
(143.585626) 2 384#0000000000000000
(143.585870) 2 401#6C4E000000000000
(143.586115) 2 402#7A71000000000000
(143.586361) 2 403#423B000000000000
(143.586613) 2 484#0000000000000000
(143.593372) 2 080#
(143.593696) 2 381#6C4E0000FDFFFFFF
(143.593938) 2 382#7A710000FFFFFFFF
(143.594182) 2 383#413B0000FEFFFFFF
(143.595359) 2 284#0000000000000000
(143.595609) 2 384#0000000000000000
(143.595852) 2 401#6C4E000000000000
(143.596098) 2 402#7A71000000000000
(143.596344) 2 403#423B000000000000
(143.596596) 2 484#0000000000000000
(143.603365) 2 080#
(143.603697) 2 381#6C4E0000FFFFFFFF
(143.603939) 2 382#7A71000000000000
(143.604183) 2 383#413B0000FBFFFFFF
(143.605344) 2 284#0000000000000000
(143.605594) 2 384#0000000000000000
(143.605837) 2 401#6C4E000000000000
(143.606083) 2 402#7A71000000000000
(143.606328) 2 403#413B000000000000
(143.606581) 2 484#0000000000000000
(143.613408) 2 080#
(143.613698) 2 381#6C4E0000FEFFFFFF
(143.613940) 2 382#7A710000FCFFFFFF
(143.614182) 2 383#423B000002000000
(143.615385) 2 401#6C4E000000000000
(143.615637) 2 284#0000000000000000
(143.615888) 2 384#0000000000000000
(143.616133) 2 402#7A71000000000000
(143.616379) 2 403#413B000000000000
(143.616631) 2 484#0000000000000000
(143.623332) 2 080#
(143.623696) 2 381#6C4E000000000000
(143.623940) 2 382#7A710000FBFFFFFF
(143.624186) 2 383#413B0000FDFFFFFF
(143.625359) 2 284#0000000000000000
(143.625609) 2 384#0000000000000000
(143.625852) 2 401#6C4E000000000000
(143.626098) 2 402#7A71000000000000
(143.626343) 2 403#413B000000000000
(143.626596) 2 484#0000000000000000
(143.633351) 2 080#
(143.633637) 2 381#6D4E000005000000
(143.633877) 2 382#7A71000001000000
(143.634119) 2 383#423B000002000000
(143.635300) 2 401#6C4E000000000000
(143.635553) 2 284#0000000000000000
(143.635803) 2 384#0000000000000000
(143.636048) 2 402#7A71000000000000
(143.636294) 2 403#413B000000000000
(143.636546) 2 484#0000000000000000
(143.643202) 2 704#05
(143.643346) 2 080#
(143.643638) 2 381#6C4E000000000000
(143.643884) 2 382#7A71000002000000
(143.644128) 2 383#413B0000FCFFFFFF
(143.645194) 2 401#6C4E000000000000
(143.645446) 2 284#0000000000000000
(143.645696) 2 384#0000000000000000
(143.645942) 2 402#7A71000000000000
(143.646187) 2 403#413B000000000000
(143.646440) 2 484#0000000000000000
(143.653336) 2 080#
(143.653636) 2 381#6C4E0000FFFFFFFF
(143.653878) 2 382#7A710000FDFFFFFF
(143.654123) 2 383#423B000004000000
(143.655284) 2 401#6C4E000000000000
(143.655536) 2 284#0000000000000000
(143.655786) 2 384#0000000000000000
(143.656032) 2 402#7A71000000000000
(143.656277) 2 403#413B000000000000
(143.656530) 2 484#0000000000000000
(143.663310) 2 080#
(143.663664) 2 381#6C4E0000FDFFFFFF
(143.663907) 2 382#7A71000000000000
(143.664149) 2 383#423B000001000000
(143.665318) 2 401#6C4E000000000000
(143.665570) 2 284#0000000000000000
(143.665820) 2 384#0000000000000000
(143.666066) 2 402#7A71000000000000
(143.666312) 2 403#413B000000000000
(143.666564) 2 484#0000000000000000
(143.673331) 2 080#
(143.673633) 2 381#6C4E000000000000
(143.673875) 2 382#7A71000000000000
(143.674117) 2 383#423B000000000000
(143.675304) 2 401#6C4E000000000000
(143.675556) 2 284#0000000000000000
(143.675807) 2 384#0000000000000000
(143.676052) 2 402#7A71000000000000
(143.676298) 2 403#413B000000000000
(143.676550) 2 484#0000000000000000
(143.683319) 2 080#
(143.683627) 2 381#6C4E0000FDFFFFFF
(143.683869) 2 382#7A710000FFFFFFFF
(143.684113) 2 383#413B0000FEFFFFFF
(143.685314) 2 401#6C4E000000000000
(143.685567) 2 284#0000000000000000
(143.685817) 2 384#0000000000000000
(143.686063) 2 402#7A71000000000000
(143.686308) 2 403#413B000000000000
(143.686560) 2 484#0000000000000000
(143.693317) 2 080#
(143.693627) 2 381#6C4E000000000000
(143.693868) 2 382#7A71000003000000
(143.694110) 2 383#423B000000000000
(143.695303) 2 401#6C4E000000000000
(143.695555) 2 284#0000000000000000
(143.695805) 2 384#0000000000000000
(143.696051) 2 402#7A71000000000000
(143.696297) 2 403#423B000000000000
(143.696549) 2 484#0000000000000000
(143.703300) 2 080#
(143.703620) 2 381#6C4E0000FCFFFFFF
(143.703862) 2 382#7A710000FFFFFFFF
(143.704104) 2 383#423B000000000000
(143.705277) 2 401#6C4E000000000000
(143.705529) 2 284#0000000000000000
(143.705780) 2 384#0000000000000000
(143.706025) 2 402#7A71000000000000
(143.706271) 2 403#423B000000000000
(143.706523) 2 484#0000000000000000
(143.713306) 2 080#
(143.713618) 2 381#6C4E0000FDFFFFFF
(143.713858) 2 382#79710000F7FFFFFF
(143.714100) 2 383#423B000000000000
(143.715293) 2 401#6C4E000000000000
(143.715546) 2 284#0000000000000000
(143.715796) 2 384#0000000000000000
(143.716041) 2 402#7A71000000000000
(143.716287) 2 403#423B000000000000
(143.716539) 2 484#0000000000000000
(143.723276) 2 080#
(143.723616) 2 381#6C4E0000FDFFFFFF
(143.723856) 2 382#7A71000001000000
(143.724098) 2 383#423B000000000000
(143.725278) 2 401#6C4E000000000000
(143.725530) 2 284#0000000000000000
(143.725780) 2 384#0000000000000000
(143.726026) 2 402#7A71000000000000
(143.726271) 2 403#423B000000000000
(143.726524) 2 484#0000000000000000
(143.733298) 2 080#
(143.733612) 2 381#6C4E0000FFFFFFFF
(143.733854) 2 382#79710000FDFFFFFF
(143.734097) 2 383#423B000000000000
(143.735266) 2 401#6C4E000000000000
(143.735518) 2 284#0000000000000000
(143.735768) 2 384#0000000000000000
(143.736014) 2 402#7A71000000000000
(143.736259) 2 403#423B000000000000
(143.736512) 2 484#0000000000000000
(143.743287) 2 080#
(143.743609) 2 381#6C4E0000FCFFFFFF
(143.743851) 2 382#7A710000FFFFFFFF
(143.744093) 2 383#423B0000FDFFFFFF
(143.745320) 2 401#6C4E000000000000
(143.745572) 2 284#0000000000000000
(143.745822) 2 384#0000000000000000
(143.746068) 2 402#7A71000000000000
(143.746313) 2 403#423B000000000000
(143.746566) 2 484#0000000000000000
(143.753283) 2 080#
(143.753609) 2 381#6C4E0000FFFFFFFF
(143.753851) 2 382#7A71000000000000
(143.754095) 2 383#413B0000FCFFFFFF
(143.755312) 2 401#6C4E000000000000
(143.755565) 2 284#0000000000000000
(143.755815) 2 384#0000000000000000
(143.756060) 2 402#7A71000000000000
(143.756306) 2 403#423B000000000000
(143.756558) 2 484#0000000000000000
(143.763267) 2 080#
(143.763605) 2 381#6C4E0000FDFFFFFF
(143.763847) 2 382#79710000F8FFFFFF
(143.764089) 2 383#423B000001000000
(143.765330) 2 401#6C4E000000000000
(143.765583) 2 284#0000000000000000
(143.765833) 2 384#0000000000000000
(143.766078) 2 402#7A71000000000000
(143.766324) 2 403#423B000000000000
(143.766576) 2 484#0000000000000000
(143.773279) 2 080#
(143.773601) 2 381#6C4E0000FDFFFFFF
(143.773845) 2 382#79710000FAFFFFFF
(143.774090) 2 383#423B000004000000
(143.775279) 2 401#6C4E000000000000
(143.775531) 2 284#0000000000000000
(143.775781) 2 384#0000000000000000
(143.776027) 2 402#7A71000000000000
(143.776272) 2 403#423B000000000000
(143.776525) 2 484#0000000000000000
(143.783259) 2 080#
(143.783600) 2 381#6C4E000001000000
(143.783846) 2 382#7A71000002000000
(143.784088) 2 383#423B000002000000
(143.785279) 2 401#6C4E000000000000
(143.785531) 2 284#0000000000000000
(143.785782) 2 384#0000000000000000
(143.786027) 2 402#7A71000000000000
(143.786273) 2 403#423B000000000000
(143.786525) 2 484#0000000000000000
(143.793302) 2 080#
(143.793596) 2 381#6D4E000003000000
(143.793836) 2 382#7A71000003000000
(143.794078) 2 383#423B000000000000
(143.795277) 2 401#6C4E000000000000
(143.795529) 2 284#0000000000000000
(143.795780) 2 384#0000000000000000
(143.796025) 2 402#7A71000000000000
(143.796271) 2 403#423B000000000000
(143.796523) 2 484#0000000000000000
(143.803254) 2 080#
(143.803592) 2 381#6C4E000001000000
(143.803832) 2 382#7A71000001000000
(143.804074) 2 383#423B000003000000
(143.805263) 2 401#6C4E000000000000
(143.805516) 2 284#0000000000000000
(143.805766) 2 384#0000000000000000
(143.806011) 2 402#7A71000000000000
(143.806257) 2 403#423B000000000000
(143.806509) 2 484#0000000000000000
(143.813252) 2 080#
(143.813586) 2 381#6C4E0000FAFFFFFF
(143.813828) 2 382#7A710000FDFFFFFF
(143.814074) 2 383#413B0000FDFFFFFF
(143.815393) 2 284#0000000000000000
(143.815643) 2 384#0000000000000000
(143.815895) 2 484#0000000000000000
(143.816252) 2 401#6C4E000000000000
(143.816498) 2 402#7A71000000000000
(143.816744) 2 403#423B000000000000
(143.823239) 2 080#
(143.823585) 2 381#6D4E000004000000
(143.823827) 2 382#7A710000FFFFFFFF
(143.824072) 2 383#413B0000FEFFFFFF
(143.825251) 2 401#6C4E000000000000
(143.825503) 2 284#0000000000000000
(143.825753) 2 384#0000000000000000
(143.825999) 2 402#7A71000000000000
(143.826244) 2 403#423B000000000000
(143.826497) 2 484#0000000000000000
(143.833241) 2 080#
(143.833572) 2 381#6C4E000001000000
(143.833814) 2 382#7A710000FFFFFFFF
(143.834054) 2 383#423B000007000000
(143.835241) 2 401#6C4E000000000000
(143.835493) 2 284#0000000000000000
(143.835744) 2 384#0000000000000000
(143.835989) 2 402#7A71000000000000
(143.836235) 2 403#423B000000000000
(143.836487) 2 484#0000000000000000
(143.843195) 2 704#05
(143.843297) 2 080#
(143.843577) 2 381#6D4E000002000000
(143.843823) 2 382#7A71000002000000
(143.844065) 2 383#413B0000FAFFFFFF
(143.845079) 2 401#6C4E000000000000
(143.845324) 2 402#7A71000000000000
(143.845577) 2 284#0000000000000000
(143.845827) 2 384#0000000000000000
(143.846072) 2 403#423B000000000000
(143.846325) 2 484#0000000000000000
(143.853229) 2 080#
(143.853571) 2 381#6C4E0000FDFFFFFF
(143.853815) 2 382#7A71000004000000
(143.854055) 2 383#423B000005000000
(143.855238) 2 401#6C4E000000000000
(143.855491) 2 284#0000000000000000
(143.855741) 2 384#0000000000000000
(143.855987) 2 402#7A71000000000000
(143.856232) 2 403#423B000000000000
(143.856484) 2 484#0000000000000000
(143.863197) 2 080#
(143.863531) 2 381#6C4E000000000000
(143.863778) 2 382#7A71000002000000
(143.864020) 2 383#413B0000FAFFFFFF
(143.865175) 2 401#6C4E000000000000
(143.865427) 2 284#0000000000000000
(143.865678) 2 384#0000000000000000
(143.865923) 2 402#7A71000000000000
(143.866168) 2 403#423B000000000000
(143.866421) 2 484#0000000000000000
(143.873215) 2 080#
(143.873526) 2 381#6C4E000003000000
(143.873766) 2 382#7A71000001000000
(143.874008) 2 383#423B000000000000
(143.875185) 2 401#6C4E000000000000
(143.875437) 2 284#0000000000000000
(143.875688) 2 384#0000000000000000
(143.875933) 2 402#7A71000000000000
(143.876179) 2 403#423B000000000000
(143.876431) 2 484#0000000000000000
(143.883188) 2 080#
(143.883526) 2 381#6C4E0000FFFFFFFF
(143.883768) 2 382#7A710000FFFFFFFF
(143.884010) 2 383#423B0000FDFFFFFF
(143.885173) 2 401#6C4E000000000000
(143.885426) 2 284#0000000000000000
(143.885676) 2 384#0000000000000000
(143.885921) 2 402#7A71000000000000
(143.886167) 2 403#423B000000000000
(143.886419) 2 484#0000000000000000
(143.893206) 2 080#
(143.893520) 2 381#6D4E000000000000
(143.893760) 2 382#7A71000001000000
(143.894002) 2 383#423B000003000000
(143.895263) 2 401#6C4E000000000000
(143.895515) 2 284#0000000000000000
(143.895766) 2 384#0000000000000000
(143.896011) 2 402#7A71000000000000
(143.896257) 2 403#423B000000000000
(143.896509) 2 484#0000000000000000
(143.903196) 2 080#
(143.903518) 2 381#6C4E000001000000
(143.903760) 2 382#7A710000FFFFFFFF
(143.904006) 2 383#413B0000FDFFFFFF
(143.905203) 2 401#6C4E000000000000
(143.905456) 2 284#0000000000000000
(143.905706) 2 384#0000000000000000
(143.905951) 2 402#7A71000000000000
(143.906197) 2 403#423B000000000000
(143.906449) 2 484#0000000000000000
(143.913196) 2 080#
(143.913514) 2 381#6C4E0000FAFFFFFF
(143.913761) 2 382#7A71000002000000
(143.914005) 2 383#413B0000FCFFFFFF
(143.915192) 2 401#6C4E000000000000
(143.915444) 2 284#0000000000000000
(143.915694) 2 384#0000000000000000
(143.915940) 2 402#7A71000000000000
(143.916185) 2 403#423B000000000000
(143.916438) 2 484#0000000000000000
(143.923183) 2 080#
(143.923517) 2 381#6C4E0000FCFFFFFF
(143.923759) 2 382#79710000F9FFFFFF
(143.924003) 2 383#413B0000FEFFFFFF
(143.925389) 2 284#0000000000000000
(143.925640) 2 384#0000000000000000
(143.925883) 2 401#6C4E000000000000
(143.926129) 2 402#7A71000000000000
(143.926374) 2 403#413B000000000000
(143.926626) 2 484#0000000000000000
(143.933182) 2 080#
(143.933514) 2 381#6D4E000003000000
(143.933756) 2 382#79710000F9FFFFFF
(143.933998) 2 383#413B0000F4FFFFFF
(143.935175) 2 401#6C4E000000000000
(143.935427) 2 284#0000000000000000
(143.935678) 2 384#0000000000000000
(143.935923) 2 402#7A71000000000000
(143.936169) 2 403#413B000000000000
(143.936421) 2 484#0000000000000000
(143.943156) 2 080#
(143.943512) 2 381#6C4E000001000000
(143.943754) 2 382#7A71000007000000
(143.943996) 2 383#413B0000F8FFFFFF
(143.945164) 2 401#6C4E000000000000
(143.945416) 2 284#0000000000000000
(143.945666) 2 384#0000000000000000
(143.945912) 2 402#7A71000000000000
(143.946157) 2 403#413B000000000000
(143.946409) 2 484#0000000000000000
(143.953172) 2 080#
(143.953490) 2 381#6D4E000003000000
(143.953733) 2 382#7A710000FFFFFFFF
(143.953979) 2 383#413B0000FDFFFFFF
(143.955146) 2 401#6C4E000000000000
(143.955398) 2 284#0000000000000000
(143.955648) 2 384#0000000000000000
(143.955894) 2 402#7A71000000000000
(143.956139) 2 403#413B000000000000
(143.956392) 2 484#0000000000000000
(143.963157) 2 080#
(143.963491) 2 381#6D4E000002000000
(143.963731) 2 382#79710000FCFFFFFF
(143.963975) 2 383#413B0000F5FFFFFF
(143.965150) 2 401#6C4E000000000000
(143.965402) 2 284#0000000000000000
(143.965653) 2 384#0000000000000000
(143.965898) 2 402#7A71000000000000
(143.966144) 2 403#413B000000000000
(143.966396) 2 484#0000000000000000
(143.973163) 2 080#
(143.973489) 2 381#6D4E000003000000
(143.973731) 2 382#7A710000FCFFFFFF
(143.973973) 2 383#423B000000000000
(143.975156) 2 401#6D4E000000000000
(143.975409) 2 284#0000000000000000
(143.975659) 2 384#0000000000000000
(143.975904) 2 402#7A71000000000000
(143.976150) 2 403#413B000000000000
(143.976402) 2 484#0000000000000000
(143.983155) 2 080#
(143.983487) 2 381#6C4E0000FEFFFFFF
(143.983729) 2 382#7A710000FFFFFFFF
(143.983975) 2 383#413B000000000000
(143.985139) 2 401#6D4E000000000000
(143.985391) 2 284#0000000000000000
(143.985641) 2 384#0000000000000000
(143.985887) 2 402#7A71000000000000
(143.986132) 2 403#413B000000000000
(143.986384) 2 484#0000000000000000
(143.993151) 2 080#
(143.993487) 2 381#6C4E0000F8FFFFFF
(143.993729) 2 382#7A710000FFFFFFFF
(143.993972) 2 383#423B000000000000
(143.995173) 2 401#6D4E000000000000
(143.995425) 2 284#0000000000000000
(143.995675) 2 384#0000000000000000
(143.995921) 2 402#7A71000000000000
(143.996166) 2 403#413B000000000000
(143.996419) 2 484#0000000000000000
(144.003148) 2 080#
(144.003484) 2 381#6C4E0000FDFFFFFF
(144.003726) 2 382#7A71000000000000
(144.003970) 2 383#413B0000FCFFFFFF
(144.005181) 2 401#6D4E000000000000
(144.005433) 2 284#0000000000000000
(144.005684) 2 384#0000000000000000
(144.005929) 2 402#7A71000000000000
(144.006175) 2 403#413B000000000000
(144.006427) 2 484#0000000000000000
(144.013140) 2 080#
(144.013478) 2 381#6C4E0000FAFFFFFF
(144.013722) 2 382#7A71000004000000
(144.013966) 2 383#413B0000FFFFFFFF
(144.015139) 2 401#6C4E000000000000
(144.015385) 2 402#7A71000000000000
(144.015637) 2 284#0000000000000000
(144.015887) 2 384#0000000000000000
(144.016133) 2 403#413B000000000000
(144.016385) 2 484#0000000000000000
(144.023124) 2 080#
(144.023470) 2 381#6C4E0000FAFFFFFF
(144.023715) 2 382#79710000FBFFFFFF
(144.023960) 2 383#413B000000000000
(144.025126) 2 401#6C4E000000000000
(144.025378) 2 284#0000000000000000
(144.025628) 2 384#0000000000000000
(144.025874) 2 402#7A71000000000000
(144.026119) 2 403#413B000000000000
(144.026372) 2 484#0000000000000000
(144.033128) 2 080#
(144.033436) 2 381#6D4E000005000000
(144.033677) 2 382#7A71000001000000
(144.033923) 2 383#413B0000FDFFFFFF
(144.035110) 2 401#6D4E000000000000
(144.035362) 2 284#0000000000000000
(144.035612) 2 384#0000000000000000
(144.035858) 2 402#7A71000000000000
(144.036103) 2 403#413B000000000000
(144.036356) 2 484#0000000000000000
(144.043135) 2 080#
(144.043251) 2 704#05
(144.043491) 2 381#6C4E0000FAFFFFFF
(144.043733) 2 382#7A71000000000000
(144.043977) 2 383#413B0000FEFFFFFF
(144.044971) 2 401#6D4E000000000000
(144.045216) 2 402#7A71000000000000
(144.045469) 2 284#0000000000000000
(144.045719) 2 384#0000000000000000
(144.045964) 2 403#413B000000000000
(144.046217) 2 484#0000000000000000
(144.053117) 2 080#
(144.053429) 2 381#6C4E0000F8FFFFFF
(144.053671) 2 382#7A71000000000000
(144.053913) 2 383#413B0000FAFFFFFF
(144.055138) 2 401#6C4E000000000000
(144.055391) 2 284#0000000000000000
(144.055641) 2 384#0000000000000000
(144.055886) 2 402#7A71000000000000
(144.056132) 2 403#413B000000000000
(144.056384) 2 484#0000000000000000
(144.063101) 2 080#
(144.063429) 2 381#6C4E0000FBFFFFFF
(144.063673) 2 382#7A71000004000000
(144.063920) 2 383#413B0000FDFFFFFF
(144.065087) 2 401#6C4E000000000000
(144.065339) 2 284#0000000000000000
(144.065589) 2 384#0000000000000000
(144.065835) 2 402#7A71000000000000
(144.066080) 2 403#413B000000000000
(144.066333) 2 484#0000000000000000
(144.073106) 2 080#
(144.073428) 2 381#6C4E0000FFFFFFFF
(144.073668) 2 382#7A710000FEFFFFFF
(144.073914) 2 383#413B0000FDFFFFFF
(144.075087) 2 401#6C4E000000000000
(144.075333) 2 402#7A71000000000000
(144.075585) 2 284#0000000000000000
(144.075835) 2 384#0000000000000000
(144.076081) 2 403#413B000000000000
(144.076333) 2 484#0000000000000000
(144.083100) 2 080#
(144.083424) 2 381#6C4E0000FEFFFFFF
(144.083666) 2 382#7A71000000000000
(144.083910) 2 383#413B0000F7FFFFFF
(144.085069) 2 401#6C4E000000000000
(144.085315) 2 402#7A71000000000000
(144.085567) 2 284#0000000000000000
(144.085818) 2 384#0000000000000000
(144.086063) 2 403#413B000000000000
(144.086315) 2 484#0000000000000000
(144.093098) 2 080#
(144.093422) 2 381#6C4E0000FBFFFFFF
(144.093666) 2 382#79710000FBFFFFFF
(144.093908) 2 383#423B000002000000
(144.095102) 2 401#6C4E000000000000
(144.095354) 2 284#0000000000000000
(144.095604) 2 384#0000000000000000
(144.095850) 2 402#7A71000000000000
(144.096095) 2 403#413B000000000000
(144.096347) 2 484#0000000000000000
(144.103090) 2 080#
(144.103418) 2 381#6C4E0000FEFFFFFF
(144.103663) 2 382#79710000FBFFFFFF
(144.103905) 2 383#423B000003000000
(144.105156) 2 401#6C4E000000000000
(144.105408) 2 284#0000000000000000
(144.105658) 2 384#0000000000000000
(144.105904) 2 402#7A71000000000000
(144.106149) 2 403#413B000000000000
(144.106402) 2 484#0000000000000000
(144.113089) 2 080#
(144.113417) 2 381#6C4E0000FEFFFFFF
(144.113659) 2 382#7A710000FFFFFFFF
(144.113903) 2 383#423B0000FFFFFFFF
(144.115088) 2 401#6C4E000000000000
(144.115334) 2 402#7A71000000000000
(144.115586) 2 284#0000000000000000
(144.115836) 2 384#0000000000000000
(144.116082) 2 403#413B000000000000
(144.116334) 2 484#0000000000000000
(144.123077) 2 080#
(144.123413) 2 381#6C4E0000F6FFFFFF
(144.123655) 2 382#7A710000FFFFFFFF
(144.123901) 2 383#413B000000000000
(144.125070) 2 401#6C4E000000000000
(144.125316) 2 402#7A71000000000000
(144.125568) 2 284#0000000000000000
(144.125819) 2 384#0000000000000000
(144.126064) 2 403#413B000000000000
(144.126316) 2 484#0000000000000000
(144.133077) 2 080#
(144.133411) 2 381#6C4E0000FDFFFFFF
(144.133653) 2 382#7A710000FFFFFFFF
(144.133897) 2 383#423B000009000000
(144.135352) 2 284#0000000000000000
(144.135602) 2 384#0000000000000000
(144.135845) 2 401#6C4E000000000000
(144.136091) 2 402#7A71000000000000
(144.136337) 2 403#413B000000000000
(144.136589) 2 484#0000000000000000
(144.143048) 2 080#
(144.143409) 2 381#6D4E000003000000
(144.143649) 2 382#7A71000001000000
(144.143893) 2 383#413B0000FCFFFFFF
(144.145098) 2 401#6C4E000000000000
(144.145343) 2 402#7A71000000000000
(144.145596) 2 284#0000000000000000
(144.145846) 2 384#0000000000000000
(144.146091) 2 403#413B000000000000
(144.146344) 2 484#0000000000000000
(144.153059) 2 080#
(144.153353) 2 381#6C4E0000FFFFFFFF
(144.153597) 2 382#7A71000006000000
(144.153837) 2 383#423B000005000000
(144.155020) 2 401#6C4E000000000000
(144.155266) 2 402#7A71000000000000
(144.155511) 2 403#413B000000000000
(144.155764) 2 284#0000000000000000
(144.156014) 2 384#0000000000000000
(144.156266) 2 484#0000000000000000
(144.163057) 2 080#
(144.163349) 2 381#6D4E000004000000
(144.163589) 2 382#7A710000FEFFFFFF
(144.163831) 2 383#423B000003000000
(144.165016) 2 401#6C4E000000000000
(144.165262) 2 402#7A71000000000000
(144.165514) 2 284#0000000000000000
(144.165765) 2 384#0000000000000000
(144.166010) 2 403#423B000000000000
(144.166263) 2 484#0000000000000000
(144.173049) 2 080#
(144.173381) 2 381#6C4E0000FFFFFFFF
(144.173623) 2 382#79710000F8FFFFFF
(144.173868) 2 383#413B0000FCFFFFFF
(144.175043) 2 401#6C4E000000000000
(144.175288) 2 402#7A71000000000000
(144.175541) 2 284#0000000000000000
(144.175791) 2 384#0000000000000000
(144.176036) 2 403#423B000000000000
(144.176289) 2 484#0000000000000000
(144.183036) 2 080#
(144.183382) 2 381#6C4E0000FFFFFFFF
(144.183624) 2 382#7A71000000000000
(144.183868) 2 383#413B0000FCFFFFFF
(144.185035) 2 401#6C4E000000000000
(144.185280) 2 402#7A71000000000000
(144.185533) 2 284#0000000000000000
(144.185783) 2 384#0000000000000000
(144.186029) 2 403#423B000000000000
(144.186281) 2 484#0000000000000000
(144.193042) 2 080#
(144.193344) 2 381#6C4E0000FEFFFFFF
(144.193584) 2 382#79710000F4FFFFFF
(144.193830) 2 383#413B0000FDFFFFFF
(144.195007) 2 401#6C4E000000000000
(144.195253) 2 402#7A71000000000000
(144.195505) 2 284#0000000000000000
(144.195755) 2 384#0000000000000000
(144.196001) 2 403#423B000000000000
(144.196253) 2 484#0000000000000000
(144.203036) 2 080#
(144.203342) 2 381#6D4E000003000000
(144.203582) 2 382#7A71000001000000
(144.203825) 2 383#423B000001000000
(144.205028) 2 401#6C4E000000000000
(144.205273) 2 402#7A71000000000000
(144.205525) 2 284#0000000000000000
(144.205776) 2 384#0000000000000000
(144.206021) 2 403#423B000000000000
(144.206274) 2 484#0000000000000000
(144.213031) 2 080#
(144.213339) 2 381#6D4E000006000000
(144.213579) 2 382#7A710000FEFFFFFF
(144.213825) 2 383#413B0000F9FFFFFF
(144.215002) 2 401#6C4E000000000000
(144.215247) 2 402#7A71000000000000
(144.215500) 2 284#0000000000000000
(144.215750) 2 384#0000000000000000
(144.215996) 2 403#423B000000000000
(144.216248) 2 484#0000000000000000
(144.223031) 2 080#
(144.223339) 2 381#6C4E0000FBFFFFFF
(144.223579) 2 382#7A710000FEFFFFFF
(144.223821) 2 383#423B000001000000
(144.224994) 2 401#6C4E000000000000
(144.225240) 2 402#7A71000000000000
(144.225492) 2 284#0000000000000000
(144.225742) 2 384#0000000000000000
(144.225988) 2 403#423B000000000000
(144.226240) 2 484#0000000000000000
(144.233017) 2 080#
(144.233329) 2 381#6D4E000001000000
(144.233573) 2 382#7A71000005000000
(144.233815) 2 383#423B000003000000
(144.235000) 2 401#6D4E000000000000
(144.235246) 2 402#7A71000000000000
(144.235498) 2 284#0000000000000000
(144.235749) 2 384#0000000000000000
(144.235994) 2 403#423B000000000000
(144.236246) 2 484#0000000000000000
(144.243015) 2 080#
(144.243174) 2 704#05
(144.243416) 2 381#6C4E0000FCFFFFFF
(144.243658) 2 382#79710000FDFFFFFF
(144.243904) 2 383#413B0000F9FFFFFF
(144.244895) 2 401#6D4E000000000000
(144.245141) 2 402#7A71000000000000
(144.245393) 2 284#0000000000000000
(144.245644) 2 384#0000000000000000
(144.245889) 2 403#423B000000000000
(144.246141) 2 484#0000000000000000
(144.253006) 2 080#
(144.253330) 2 381#6C4E0000F9FFFFFF
(144.253576) 2 382#7A71000002000000
(144.253820) 2 383#413B0000FEFFFFFF
(144.255003) 2 401#6D4E000000000000
(144.255249) 2 402#7A71000000000000
(144.255501) 2 284#0000000000000000
(144.255752) 2 384#0000000000000000
(144.255997) 2 403#413B000000000000
(144.256249) 2 484#0000000000000000
(144.263000) 2 080#
(144.263326) 2 381#6D4E000006000000
(144.263568) 2 382#7A710000FDFFFFFF
(144.263810) 2 383#413B0000F8FFFFFF
(144.264990) 2 401#6D4E000000000000
(144.265235) 2 402#7A71000000000000
(144.265488) 2 284#0000000000000000
(144.265738) 2 384#0000000000000000
(144.265983) 2 403#413B000000000000
(144.266236) 2 484#0000000000000000
(144.272997) 2 080#
(144.273325) 2 381#6D4E000006000000
(144.273567) 2 382#7A710000FDFFFFFF
(144.273809) 2 383#423B000002000000
(144.275253) 2 401#6D4E000000000000
(144.275506) 2 284#0000000000000000
(144.275756) 2 384#0000000000000000
(144.276001) 2 402#7A71000000000000
(144.276247) 2 403#413B000000000000
(144.276499) 2 484#0000000000000000
(144.282985) 2 080#
(144.283321) 2 381#6D4E000001000000
(144.283563) 2 382#7A710000FDFFFFFF
(144.283807) 2 383#413B0000FFFFFFFF
(144.284992) 2 401#6D4E000000000000
(144.285237) 2 402#7A71000000000000
(144.285490) 2 284#0000000000000000
(144.285740) 2 384#0000000000000000
(144.285986) 2 403#413B000000000000
(144.286238) 2 484#0000000000000000
(144.293005) 2 080#
(144.293317) 2 381#6C4E0000FCFFFFFF
(144.293559) 2 382#7A71000000000000
(144.293801) 2 383#423B000000000000
(144.294982) 2 401#6D4E000000000000
(144.295228) 2 402#7A71000000000000
(144.295480) 2 284#0000000000000000
(144.295730) 2 384#0000000000000000
(144.295976) 2 403#413B000000000000
(144.296228) 2 484#0000000000000000
(144.302983) 2 080#
(144.303315) 2 381#6C4E000002000000
(144.303561) 2 382#7A71000002000000
(144.303805) 2 383#413B0000FEFFFFFF
(144.305010) 2 401#6D4E000000000000
(144.305256) 2 402#7A71000000000000
(144.305508) 2 284#0000000000000000
(144.305758) 2 384#0000000000000000
(144.306004) 2 403#413B000000000000
(144.306256) 2 484#0000000000000000
(144.312973) 2 080#
(144.313313) 2 381#6C4E0000FCFFFFFF
(144.313555) 2 382#7A710000FFFFFFFF
(144.313802) 2 383#413B0000F9FFFFFF
(144.314979) 2 401#6D4E000000000000
(144.315224) 2 402#7A71000000000000
(144.315477) 2 284#0000000000000000
(144.315727) 2 384#0000000000000000
(144.315973) 2 403#413B000000000000
(144.316225) 2 484#0000000000000000
(144.322970) 2 080#
(144.323306) 2 381#6C4E0000FDFFFFFF
(144.323546) 2 382#7A71000001000000
(144.323788) 2 383#413B0000F6FFFFFF
(144.324965) 2 401#6D4E000000000000
(144.325211) 2 402#7A71000000000000
(144.325463) 2 284#0000000000000000
(144.325713) 2 384#0000000000000000
(144.325959) 2 403#413B000000000000
(144.326211) 2 484#0000000000000000
(144.332964) 2 080#
(144.333302) 2 381#6C4E000001000000
(144.333542) 2 382#79710000FCFFFFFF
(144.333786) 2 383#413B0000FEFFFFFF
(144.334987) 2 401#6C4E000000000000
(144.335233) 2 402#7A71000000000000
(144.335485) 2 284#0000000000000000
(144.335736) 2 384#0000000000000000
(144.335981) 2 403#413B000000000000
(144.336233) 2 484#0000000000000000
(144.342948) 2 080#
(144.343296) 2 381#6C4E0000FCFFFFFF
(144.343538) 2 382#7A710000FFFFFFFF
(144.343781) 2 383#423B000002000000
(144.344958) 2 401#6C4E000000000000
(144.345203) 2 402#7A71000000000000
(144.345456) 2 284#0000000000000000
(144.345706) 2 384#0000000000000000
(144.345951) 2 403#413B000000000000
(144.346204) 2 484#0000000000000000
(144.352953) 2 080#
(144.353253) 2 381#6D4E000002000000
(144.353497) 2 382#7A71000004000000
(144.353741) 2 383#413B0000FFFFFFFF
(144.354920) 2 401#6C4E000000000000
(144.355166) 2 402#7A71000000000000
(144.355418) 2 284#0000000000000000
(144.355668) 2 384#0000000000000000
(144.355914) 2 403#413B000000000000
(144.356166) 2 484#0000000000000000
(144.362943) 2 080#
(144.363281) 2 381#6C4E000001000000
(144.363521) 2 382#79710000FCFFFFFF
(144.363765) 2 383#413B0000FEFFFFFF
(144.365293) 2 401#6C4E000000000000
(144.365546) 2 284#0000000000000000
(144.365796) 2 384#0000000000000000
(144.366042) 2 402#7A71000000000000
(144.366287) 2 403#413B000000000000
(144.366540) 2 484#0000000000000000
(144.372939) 2 080#
(144.373249) 2 381#6C4E0000FFFFFFFF
(144.373492) 2 382#7A71000000000000
(144.373736) 2 383#423B000004000000
(144.374953) 2 401#6C4E000000000000
(144.375198) 2 402#7A71000000000000
(144.375451) 2 284#0000000000000000
(144.375701) 2 384#0000000000000000
(144.375946) 2 403#413B000000000000
(144.376199) 2 484#0000000000000000
(144.382930) 2 080#
(144.383242) 2 381#6D4E000002000000
(144.383484) 2 382#7A710000FDFFFFFF
(144.383728) 2 383#413B0000FCFFFFFF
(144.384903) 2 401#6C4E000000000000
(144.385149) 2 402#7A71000000000000
(144.385401) 2 284#0000000000000000
(144.385652) 2 384#0000000000000000
(144.385897) 2 403#413B000000000000
(144.386149) 2 484#0000000000000000
(144.392928) 2 080#
(144.393240) 2 381#6C4E000000000000
(144.393484) 2 382#79710000FAFFFFFF
(144.393728) 2 383#423B0000FFFFFFFF
(144.394909) 2 401#6C4E000000000000
(144.395155) 2 402#7A71000000000000
(144.395407) 2 284#0000000000000000
(144.395658) 2 384#0000000000000000
(144.395903) 2 403#413B000000000000
(144.396155) 2 484#0000000000000000
(144.402924) 2 080#
(144.403234) 2 381#6C4E0000FAFFFFFF
(144.403476) 2 382#7A710000FFFFFFFF
(144.403719) 2 383#423B000001000000
(144.404924) 2 401#6C4E000000000000
(144.405169) 2 402#7A71000000000000
(144.405421) 2 284#0000000000000000
(144.405672) 2 384#0000000000000000
(144.405917) 2 403#413B000000000000
(144.406170) 2 484#0000000000000000
(144.412918) 2 080#
(144.413237) 2 381#6D4E000002000000
(144.413479) 2 382#7A710000FFFFFFFF
(144.413723) 2 383#413B0000FFFFFFFF
(144.414898) 2 401#6C4E000000000000
(144.415143) 2 402#7A71000000000000
(144.415396) 2 284#0000000000000000
(144.415646) 2 384#0000000000000000
(144.415891) 2 403#413B000000000000
(144.416144) 2 484#0000000000000000
(144.422907) 2 080#
(144.423235) 2 381#6C4E000000000000
(144.423475) 2 382#7A71000001000000
(144.423717) 2 383#423B000001000000
(144.424902) 2 401#6C4E000000000000
(144.425148) 2 402#7A71000000000000
(144.425400) 2 284#0000000000000000
(144.425650) 2 384#0000000000000000
(144.425896) 2 403#413B000000000000
(144.426148) 2 484#0000000000000000
(144.432911) 2 080#
(144.433233) 2 381#6C4E000000000000
(144.433473) 2 382#79710000FCFFFFFF
(144.433717) 2 383#423B0000FFFFFFFF
(144.434894) 2 401#6C4E000000000000
(144.435140) 2 402#7A71000000000000
(144.435392) 2 284#0000000000000000
(144.435643) 2 384#0000000000000000
(144.435888) 2 403#423B000000000000
(144.436140) 2 484#0000000000000000
(144.442899) 2 080#
(144.443227) 2 381#6C4E0000FAFFFFFF
(144.443469) 2 382#7A710000FFFFFFFF
(144.443711) 2 383#423B000000000000
(144.443828) 2 704#05
(144.444921) 2 401#6C4E000000000000
(144.445167) 2 402#7A71000000000000
(144.445419) 2 284#0000000000000000
(144.445669) 2 384#0000000000000000
(144.445915) 2 403#423B000000000000
(144.446167) 2 484#0000000000000000
(144.452896) 2 080#
(144.453228) 2 381#6C4E000002000000
(144.453468) 2 382#7A710000FEFFFFFF
(144.453714) 2 383#413B0000FDFFFFFF
(144.454875) 2 401#6C4E000000000000
(144.455121) 2 402#7A71000000000000
(144.455373) 2 284#0000000000000000
(144.455624) 2 384#0000000000000000
(144.455869) 2 403#423B000000000000
(144.456121) 2 484#0000000000000000
(144.462886) 2 080#
(144.463228) 2 381#6D4E000000000000
(144.463468) 2 382#79710000FCFFFFFF
(144.463711) 2 383#423B000000000000
(144.464964) 2 401#6C4E000000000000
(144.465209) 2 402#7A71000000000000
(144.465462) 2 284#0000000000000000
(144.465712) 2 384#0000000000000000
(144.465957) 2 403#423B000000000000
(144.466210) 2 484#0000000000000000
(144.472901) 2 080#
(144.473219) 2 381#6C4E0000F5FFFFFF
(144.473459) 2 382#7A71000001000000
(144.473705) 2 383#413B0000FDFFFFFF
(144.474890) 2 401#6C4E000000000000
(144.475136) 2 402#7A71000000000000
(144.475388) 2 284#0000000000000000
(144.475638) 2 384#0000000000000000
(144.475884) 2 403#423B000000000000
(144.476136) 2 484#0000000000000000
(144.482879) 2 080#
(144.483217) 2 381#6D4E000001000000
(144.483457) 2 382#79710000FEFFFFFF
(144.483699) 2 383#423B00000B000000
(144.484874) 2 401#6C4E000000000000
(144.485120) 2 402#7A71000000000000
(144.485372) 2 284#0000000000000000
(144.485622) 2 384#0000000000000000
(144.485868) 2 403#423B000000000000
(144.486120) 2 484#0000000000000000
(144.492881) 2 080#
(144.493209) 2 381#6C4E0000FEFFFFFF
(144.493450) 2 382#7A710000FEFFFFFF
(144.493694) 2 383#423B0000FEFFFFFF
(144.494893) 2 401#6C4E000000000000
(144.495138) 2 402#7A71000000000000
(144.495391) 2 284#0000000000000000
(144.495641) 2 384#0000000000000000
(144.495887) 2 403#423B000000000000
(144.496139) 2 484#0000000000000000
(144.502870) 2 080#
(144.503210) 2 381#6C4E0000FEFFFFFF
(144.503450) 2 382#79710000F7FFFFFF
(144.503694) 2 383#413B0000FBFFFFFF
(144.504883) 2 401#6C4E000000000000
(144.505129) 2 402#7A71000000000000
(144.505381) 2 284#0000000000000000
(144.505631) 2 384#0000000000000000
(144.505877) 2 403#423B000000000000
(144.506129) 2 484#0000000000000000
(144.512862) 2 080#
(144.513202) 2 381#6C4E0000FEFFFFFF
(144.513446) 2 382#79710000FBFFFFFF
(144.513690) 2 383#413B0000F5FFFFFF
(144.514857) 2 401#6C4E000000000000
(144.515103) 2 402#7A71000000000000
(144.515349) 2 403#423B000000000000
(144.515601) 2 284#0000000000000000
(144.515851) 2 384#0000000000000000
(144.516104) 2 484#0000000000000000
(144.522858) 2 080#
(144.523198) 2 381#6C4E0000FBFFFFFF
(144.523440) 2 382#7A710000FDFFFFFF
(144.523685) 2 383#423B000006000000
(144.524868) 2 401#6C4E000000000000
(144.525113) 2 402#7A71000000000000
(144.525366) 2 284#0000000000000000
(144.525616) 2 384#0000000000000000
(144.525861) 2 403#423B000000000000
(144.526114) 2 484#0000000000000000
(144.532855) 2 080#
(144.533193) 2 381#6C4E000000000000
(144.533433) 2 382#7A710000FEFFFFFF
(144.533677) 2 383#423B0000FFFFFFFF
(144.534856) 2 401#6C4E000000000000
(144.535102) 2 402#7A71000000000000
(144.535354) 2 284#0000000000000000
(144.535604) 2 384#0000000000000000
(144.535850) 2 403#423B000000000000
(144.536102) 2 484#0000000000000000
(144.542839) 2 080#
(144.543187) 2 381#6C4E0000FEFFFFFF
(144.543429) 2 382#7A710000FDFFFFFF
(144.543671) 2 383#423B000001000000
(144.544838) 2 401#6C4E000000000000
(144.545084) 2 402#7A71000000000000
(144.545336) 2 284#0000000000000000
(144.545586) 2 384#0000000000000000
(144.545832) 2 403#423B000000000000
(144.546084) 2 484#0000000000000000
(144.552839) 2 080#
(144.553143) 2 381#6C4E0000FAFFFFFF
(144.553387) 2 382#79710000FAFFFFFF
(144.553631) 2 383#423B000009000000
(144.554795) 2 401#6C4E000000000000
(144.555040) 2 402#7A71000000000000
(144.555286) 2 403#423B000000000000
(144.555538) 2 284#0000000000000000
(144.555788) 2 384#0000000000000000
(144.556041) 2 484#0000000000000000
(144.562831) 2 080#
(144.563143) 2 381#6C4E0000FCFFFFFF
(144.563386) 2 382#7A710000FFFFFFFF
(144.563628) 2 383#423B000000000000
(144.564825) 2 401#6C4E000000000000
(144.565070) 2 402#7A71000000000000
(144.565316) 2 403#423B000000000000
(144.565568) 2 284#0000000000000000
(144.565819) 2 384#0000000000000000
(144.566071) 2 484#0000000000000000
(144.572834) 2 080#
(144.573146) 2 381#6C4E0000FBFFFFFF
(144.573388) 2 382#79710000F9FFFFFF
(144.573630) 2 383#423B000001000000
(144.574869) 2 401#6C4E000000000000
(144.575115) 2 402#7A71000000000000
(144.575367) 2 284#0000000000000000
(144.575617) 2 384#0000000000000000
(144.575863) 2 403#423B000000000000
(144.576115) 2 484#0000000000000000
(144.582824) 2 080#
(144.583142) 2 381#6C4E0000FFFFFFFF
(144.583384) 2 382#79710000F9FFFFFF
(144.583628) 2 383#413B0000FBFFFFFF
(144.584807) 2 401#6C4E000000000000
(144.585053) 2 402#7A71000000000000
(144.585298) 2 403#423B000000000000
(144.585551) 2 284#0000000000000000
(144.585801) 2 384#0000000000000000
(144.586053) 2 484#0000000000000000
(144.592822) 2 080#
(144.593138) 2 381#6C4E0000FDFFFFFF
(144.593380) 2 382#7A710000FCFFFFFF
(144.593622) 2 383#423B000001000000
(144.594829) 2 401#6C4E000000000000
(144.595075) 2 402#7A71000000000000
(144.595321) 2 403#423B000000000000
(144.595573) 2 284#0000000000000000
(144.595823) 2 384#0000000000000000
(144.596076) 2 484#0000000000000000
(144.602822) 2 080#
(144.603135) 2 381#6C4E0000FAFFFFFF
(144.603375) 2 382#7A710000FEFFFFFF
(144.603617) 2 383#423B0000FCFFFFFF
(144.604830) 2 401#6C4E000000000000
(144.605075) 2 402#7A71000000000000
(144.605321) 2 403#423B000000000000
(144.605573) 2 284#0000000000000000
(144.605824) 2 384#0000000000000000
(144.606076) 2 484#0000000000000000
(144.612813) 2 080#
(144.613135) 2 381#6D4E000003000000
(144.613375) 2 382#7A710000FEFFFFFF
(144.613621) 2 383#413B0000F9FFFFFF
(144.614800) 2 401#6C4E000000000000
(144.615046) 2 402#7A71000000000000
(144.615291) 2 403#423B000000000000
(144.615544) 2 284#0000000000000000
(144.615794) 2 384#0000000000000000
(144.616046) 2 484#0000000000000000
(144.622801) 2 080#
(144.623135) 2 381#6D4E000000000000
(144.623375) 2 382#7A710000FEFFFFFF
(144.623615) 2 383#423B000005000000
(144.624793) 2 401#6C4E000000000000
(144.625038) 2 402#7A71000000000000
(144.625284) 2 403#423B000000000000
(144.625536) 2 284#0000000000000000
(144.625786) 2 384#0000000000000000
(144.626039) 2 484#0000000000000000
(144.632800) 2 080#
(144.633132) 2 381#6C4E0000FDFFFFFF
(144.633376) 2 382#7A71000004000000
(144.633620) 2 383#413B0000FBFFFFFF
(144.634791) 2 401#6C4E000000000000
(144.635036) 2 402#7A71000000000000
(144.635282) 2 403#423B000000000000
(144.635534) 2 284#0000000000000000
(144.635785) 2 384#0000000000000000
(144.636037) 2 484#0000000000000000
(144.642788) 2 080#
(144.643128) 2 381#6D4E000003000000
(144.643372) 2 382#7A71000004000000
(144.643618) 2 383#413B0000FDFFFFFF
(144.643734) 2 704#05
(144.644804) 2 401#6C4E000000000000
(144.645049) 2 402#7A71000000000000
(144.645295) 2 403#423B000000000000
(144.645547) 2 284#0000000000000000
(144.645798) 2 384#0000000000000000
(144.646050) 2 484#0000000000000000
(144.652799) 2 080#
(144.653121) 2 381#6C4E0000FEFFFFFF
(144.653363) 2 382#7A710000FFFFFFFF
(144.653605) 2 383#423B000000000000
(144.654782) 2 401#6C4E000000000000
(144.655028) 2 402#7A71000000000000
(144.655273) 2 403#423B000000000000
(144.655526) 2 284#0000000000000000
(144.655776) 2 384#0000000000000000
(144.656028) 2 484#0000000000000000
(144.662771) 2 080#
(144.663119) 2 381#6D4E000006000000
(144.663362) 2 382#7A710000FCFFFFFF
(144.663604) 2 383#423B0000FDFFFFFF
(144.664833) 2 401#6C4E000000000000
(144.665078) 2 402#7A71000000000000
(144.665324) 2 403#423B000000000000
(144.665576) 2 284#0000000000000000
(144.665826) 2 384#0000000000000000
(144.666079) 2 484#0000000000000000
(144.672776) 2 080#
(144.673108) 2 381#6C4E0000FFFFFFFF
(144.673350) 2 382#7A710000FCFFFFFF
(144.673590) 2 383#423B000005000000
(144.674819) 2 401#6C4E000000000000
(144.675064) 2 402#7A71000000000000
(144.675310) 2 403#423B000000000000
(144.675562) 2 284#0000000000000000
(144.675813) 2 384#0000000000000000
(144.676065) 2 484#0000000000000000
(144.682772) 2 080#
(144.683104) 2 381#6C4E000001000000
(144.683344) 2 382#7A71000001000000
(144.683586) 2 383#423B000001000000
(144.684769) 2 401#6C4E000000000000
(144.685015) 2 402#7A71000000000000
(144.685260) 2 403#423B000000000000
(144.685513) 2 284#0000000000000000
(144.685763) 2 384#0000000000000000
(144.686015) 2 484#0000000000000000
(144.692766) 2 080#
(144.693106) 2 381#6C4E0000FFFFFFFF
(144.693351) 2 382#7A710000FBFFFFFF
(144.693593) 2 383#423B0000FCFFFFFF
(144.694772) 2 401#6C4E000000000000
(144.695017) 2 402#7A71000000000000
(144.695263) 2 403#423B000000000000
(144.695515) 2 284#0000000000000000
(144.695766) 2 384#0000000000000000
(144.696018) 2 484#0000000000000000
(144.702767) 2 080#
(144.703097) 2 381#6C4E0000F7FFFFFF
(144.703339) 2 382#79710000F8FFFFFF
(144.703585) 2 383#413B0000F9FFFFFF
(144.704796) 2 401#6C4E000000000000
(144.705042) 2 402#7A71000000000000
(144.705287) 2 403#423B000000000000
(144.705540) 2 284#0000000000000000
(144.705790) 2 384#0000000000000000
(144.706042) 2 484#0000000000000000
(144.712755) 2 080#
(144.713099) 2 381#6D4E000003000000
(144.713341) 2 382#79710000F9FFFFFF
(144.713583) 2 383#423B000001000000
(144.714766) 2 401#6D4E000000000000
(144.715012) 2 402#7A71000000000000
(144.715258) 2 403#423B000000000000
(144.715510) 2 284#0000000000000000
(144.715760) 2 384#0000000000000000
(144.716013) 2 484#0000000000000000
(144.722763) 2 080#
(144.723090) 2 381#6C4E0000F9FFFFFF
(144.723336) 2 382#7A71000002000000
(144.723582) 2 383#413B0000FDFFFFFF
(144.724749) 2 401#6D4E000000000000
(144.724995) 2 402#7A71000000000000
(144.725240) 2 403#423B000000000000
(144.725493) 2 284#0000000000000000
(144.725743) 2 384#0000000000000000
(144.725995) 2 484#0000000000000000
(144.732748) 2 080#
(144.733086) 2 381#6D4E000004000000
(144.733328) 2 382#7A71000000000000
(144.733572) 2 383#413B0000F7FFFFFF
(144.734743) 2 401#6D4E000000000000
(144.734989) 2 402#7A71000000000000
(144.735234) 2 403#423B000000000000
(144.735487) 2 284#0000000000000000
(144.735737) 2 384#0000000000000000
(144.735989) 2 484#0000000000000000
(144.742732) 2 080#
(144.743050) 2 381#6C4E0000FFFFFFFF
(144.743294) 2 382#7A71000004000000
(144.743537) 2 383#413B0000F8FFFFFF
(144.744788) 2 401#6C4E000000000000
(144.745033) 2 402#7A71000000000000
(144.745279) 2 403#423B000000000000
(144.745531) 2 284#0000000000000000
(144.745781) 2 384#0000000000000000
(144.746034) 2 484#0000000000000000
(144.752735) 2 080#
(144.753043) 2 381#6C4E0000FAFFFFFF
(144.753285) 2 382#7A71000000000000
(144.753527) 2 383#423B000003000000
(144.754744) 2 401#6C4E000000000000
(144.754989) 2 402#7A71000000000000
(144.755235) 2 403#423B000000000000
(144.755487) 2 284#0000000000000000
(144.755738) 2 384#0000000000000000
(144.755990) 2 484#0000000000000000
(144.762727) 2 080#
(144.763041) 2 381#6C4E0000FAFFFFFF
(144.763281) 2 382#7A71000001000000
(144.763523) 2 383#423B000001000000
(144.764702) 2 401#6C4E000000000000
(144.764948) 2 402#7A71000000000000
(144.765193) 2 403#423B000000000000
(144.765446) 2 284#0000000000000000
(144.765696) 2 384#0000000000000000
(144.765948) 2 484#0000000000000000
(144.772721) 2 080#
(144.773043) 2 381#6C4E0000FFFFFFFF
(144.773287) 2 382#7A71000004000000
(144.773529) 2 383#423B000001000000
(144.774718) 2 401#6C4E000000000000
(144.774964) 2 402#7A71000000000000
(144.775210) 2 403#423B000000000000
(144.775462) 2 284#0000000000000000
(144.775712) 2 384#0000000000000000
(144.775965) 2 484#0000000000000000
(144.782713) 2 080#
(144.783040) 2 381#6D4E000005000000
(144.783284) 2 382#79710000FAFFFFFF
(144.783526) 2 383#423B000003000000
(144.784719) 2 401#6C4E000000000000
(144.784964) 2 402#7A71000000000000
(144.785210) 2 403#423B000000000000
(144.785463) 2 284#0000000000000000
(144.785713) 2 384#0000000000000000
(144.785965) 2 484#0000000000000000
(144.792712) 2 080#
(144.793036) 2 381#6D4E000001000000
(144.793276) 2 382#7A71000001000000
(144.793520) 2 383#423B0000FFFFFFFF
(144.794757) 2 401#6C4E000000000000
(144.795003) 2 402#7A71000000000000
(144.795248) 2 403#423B000000000000
(144.795501) 2 284#0000000000000000
(144.795751) 2 384#0000000000000000
(144.796003) 2 484#0000000000000000
(144.802700) 2 080#
(144.803036) 2 381#6C4E0000FDFFFFFF
(144.803280) 2 382#79710000FAFFFFFF
(144.803525) 2 383#413B0000FCFFFFFF
(144.804819) 2 401#6C4E000000000000
(144.805065) 2 402#7A71000000000000
(144.805310) 2 403#423B000000000000
(144.805563) 2 284#0000000000000000
(144.805813) 2 384#0000000000000000
(144.806065) 2 484#0000000000000000
(144.812707) 2 080#
(144.813031) 2 381#6C4E0000FAFFFFFF
(144.813275) 2 382#79710000FAFFFFFF
(144.813517) 2 383#423B0000FDFFFFFF
(144.814702) 2 401#6C4E000000000000
(144.814948) 2 402#7A71000000000000
(144.815193) 2 403#423B000000000000
(144.815446) 2 284#0000000000000000
(144.815696) 2 384#0000000000000000
(144.815948) 2 484#0000000000000000
(144.822689) 2 080#
(144.823031) 2 381#6D4E000003000000
(144.823271) 2 382#79710000FCFFFFFF
(144.823511) 2 383#423B000005000000
(144.824708) 2 401#6D4E000000000000
(144.824954) 2 402#7A71000000000000
(144.825199) 2 403#423B000000000000
(144.825452) 2 284#0000000000000000
(144.825702) 2 384#0000000000000000
(144.825954) 2 484#0000000000000000
(144.832687) 2 080#
(144.833021) 2 381#6D4E000004000000
(144.833261) 2 382#7A710000FEFFFFFF
(144.833504) 2 383#423B000003000000
(144.834699) 2 401#6D4E000000000000
(144.834944) 2 402#7A71000000000000
(144.835190) 2 403#423B000000000000
(144.835442) 2 284#0000000000000000
(144.835693) 2 384#0000000000000000
(144.835945) 2 484#0000000000000000
(144.842680) 2 080#
(144.843022) 2 381#6C4E0000FCFFFFFF
(144.843264) 2 382#7A710000FFFFFFFF
(144.843508) 2 383#413B0000FBFFFFFF
(144.843624) 2 704#05
(144.844723) 2 401#6D4E000000000000
(144.844969) 2 402#7A71000000000000
(144.845215) 2 403#423B000000000000
(144.845467) 2 284#0000000000000000
(144.845717) 2 384#0000000000000000
(144.845970) 2 484#0000000000000000
(144.852677) 2 080#
(144.853013) 2 381#6C4E000001000000
(144.853255) 2 382#7A710000FFFFFFFF
(144.853497) 2 383#423B000003000000
(144.854684) 2 401#6C4E000000000000
(144.854930) 2 402#7A71000000000000
(144.855175) 2 403#423B000000000000
(144.855428) 2 284#0000000000000000
(144.855678) 2 384#0000000000000000
(144.855930) 2 484#0000000000000000
(144.862663) 2 080#
(144.863011) 2 381#6D4E000002000000
(144.863251) 2 382#7A710000FEFFFFFF
(144.863493) 2 383#413B0000FAFFFFFF
(144.864688) 2 401#6D4E000000000000
(144.864934) 2 402#7A71000000000000
(144.865180) 2 403#423B000000000000
(144.865432) 2 284#0000000000000000
(144.865682) 2 384#0000000000000000
(144.865934) 2 484#0000000000000000
(144.872663) 2 080#
(144.872997) 2 381#6D4E000007000000
(144.873238) 2 382#7A710000FEFFFFFF
(144.873478) 2 383#423B000005000000
(144.874661) 2 401#6D4E000000000000
(144.874906) 2 402#7A71000000000000
(144.875152) 2 403#423B000000000000
(144.875404) 2 284#0000000000000000
(144.875655) 2 384#0000000000000000
(144.875907) 2 484#0000000000000000
(144.882658) 2 080#
(144.882996) 2 381#6C4E0000FDFFFFFF
(144.883240) 2 382#7A71000005000000
(144.883484) 2 383#423B000006000000
(144.884689) 2 401#6D4E000000000000
(144.884935) 2 402#7A71000000000000
(144.885180) 2 403#423B000000000000
(144.885433) 2 284#0000000000000000
(144.885683) 2 384#0000000000000000
(144.885935) 2 484#0000000000000000
(144.892660) 2 080#
(144.892960) 2 381#6C4E0000FCFFFFFF
(144.893202) 2 382#79710000FDFFFFFF
(144.893445) 2 383#423B000001000000
(144.894630) 2 401#6D4E000000000000
(144.894875) 2 402#7A71000000000000
(144.895121) 2 403#423B000000000000
(144.895373) 2 284#0000000000000000
(144.895623) 2 384#0000000000000000
(144.895876) 2 484#0000000000000000
(144.902660) 2 080#
(144.902989) 2 381#6C4E0000F7FFFFFF
(144.903229) 2 382#7A71000003000000
(144.903475) 2 383#413B000001000000
(144.904648) 2 401#6D4E000000000000
(144.904893) 2 402#7A71000000000000
(144.905139) 2 403#423B000000000000
(144.905392) 2 284#0000000000000000
(144.905642) 2 384#0000000000000000
(144.905894) 2 484#0000000000000000
(144.912643) 2 080#
(144.912991) 2 381#6C4E0000FFFFFFFF
(144.913235) 2 382#7A71000004000000
(144.913475) 2 383#423B000005000000
(144.914694) 2 401#6C4E000000000000
(144.914940) 2 402#7A71000000000000
(144.915185) 2 403#423B000000000000
(144.915438) 2 284#0000000000000000
(144.915688) 2 384#0000000000000000
(144.915940) 2 484#0000000000000000
(144.922633) 2 080#
(144.922949) 2 381#6C4E0000FAFFFFFF
(144.923192) 2 382#7A710000FFFFFFFF
(144.923436) 2 383#423B0000FEFFFFFF
(144.924621) 2 401#6C4E000000000000
(144.924866) 2 402#7A71000000000000
(144.925112) 2 403#423B000000000000
(144.925364) 2 284#0000000000000000
(144.925615) 2 384#0000000000000000
(144.925867) 2 484#0000000000000000
(144.932636) 2 080#
(144.932948) 2 381#6C4E0000F8FFFFFF
(144.933190) 2 382#7A710000FFFFFFFF
(144.933434) 2 383#413B0000FBFFFFFF
(144.934613) 2 401#6C4E000000000000
(144.934859) 2 402#7A71000000000000
(144.935104) 2 403#423B000000000000
(144.935357) 2 284#0000000000000000
(144.935607) 2 384#0000000000000000
(144.935859) 2 484#0000000000000000
(144.942620) 2 080#
(144.942948) 2 381#6D4E000000000000
(144.943190) 2 382#79710000F9FFFFFF
(144.943434) 2 383#413B0000FEFFFFFF
(144.944617) 2 401#6C4E000000000000
(144.944863) 2 402#7A71000000000000
(144.945108) 2 403#423B000000000000
(144.945361) 2 284#0000000000000000
(144.945611) 2 384#0000000000000000
(144.945863) 2 484#0000000000000000
(144.952626) 2 080#
(144.952944) 2 381#6C4E0000FDFFFFFF
(144.953184) 2 382#79710000F3FFFFFF
(144.953429) 2 383#413B0000FEFFFFFF
(144.954620) 2 401#6C4E000000000000
(144.954865) 2 402#7A71000000000000
(144.955111) 2 403#423B000000000000
(144.955363) 2 284#0000000000000000
(144.955613) 2 384#0000000000000000
(144.955866) 2 484#0000000000000000
(144.962609) 2 080#
(144.962945) 2 381#6C4E0000FBFFFFFF
(144.963187) 2 382#7A710000FFFFFFFF
(144.963429) 2 383#423B000001000000
(144.964644) 2 401#6C4E000000000000
(144.964889) 2 402#7A71000000000000
(144.965135) 2 403#423B000000000000
(144.965387) 2 284#0000000000000000
(144.965638) 2 384#0000000000000000
(144.965890) 2 484#0000000000000000
(144.972629) 2 080#
(144.972941) 2 381#6D4E000003000000
(144.973181) 2 382#7A71000001000000
(144.973421) 2 383#423B000005000000
(144.974606) 2 401#6C4E000000000000
(144.974852) 2 402#7A71000000000000
(144.975097) 2 403#423B000000000000
(144.975352) 2 284#0000000000000000
(144.975602) 2 384#0000000000000000
(144.975854) 2 484#0000000000000000
(144.982605) 2 080#
(144.982939) 2 381#6C4E0000FDFFFFFF
(144.983183) 2 382#7A71000005000000
(144.983428) 2 383#413B0000FFFFFFFF
(144.984587) 2 401#6C4E000000000000
(144.984832) 2 402#7A71000000000000
(144.985078) 2 403#423B000000000000
(144.985338) 2 284#0000000000000000
(144.985588) 2 384#0000000000000000
(144.985841) 2 484#0000000000000000
(144.992602) 2 080#
(144.992940) 2 381#6C4E000000000000
(144.993182) 2 382#7A710000FDFFFFFF
(144.993426) 2 383#423B0000FFFFFFFF
(144.994611) 2 401#6C4E000000000000
(144.994857) 2 402#7A71000000000000
(144.995102) 2 403#423B000000000000
(144.995355) 2 284#0000000000000000
(144.995605) 2 384#0000000000000000
(144.995857) 2 484#0000000000000000
(145.002598) 2 080#
(145.002936) 2 381#6C4E000000000000
(145.003178) 2 382#7A710000FFFFFFFF
(145.003422) 2 383#423B000004000000
(145.004595) 2 401#6C4E000000000000
(145.004841) 2 402#7A71000000000000
(145.005087) 2 403#423B000000000000
(145.005339) 2 284#0000000000000000
(145.005589) 2 384#0000000000000000
(145.005842) 2 484#0000000000000000
(145.012586) 2 080#
(145.012932) 2 381#6C4E0000FFFFFFFF
(145.013175) 2 382#7A710000FFFFFFFF
(145.013417) 2 383#423B000002000000
(145.014624) 2 401#6C4E000000000000
(145.014869) 2 402#7A71000000000000
(145.015115) 2 403#423B000000000000
(145.015367) 2 284#0000000000000000
(145.015618) 2 384#0000000000000000
(145.015870) 2 484#0000000000000000
(145.022579) 2 080#
(145.022921) 2 381#6C4E000000000000
(145.023163) 2 382#7A710000FFFFFFFF
(145.023407) 2 383#413B0000FEFFFFFF
(145.024608) 2 401#6C4E000000000000
(145.024854) 2 402#7A71000000000000
(145.025099) 2 403#423B000000000000
(145.025352) 2 284#0000000000000000
(145.025602) 2 384#0000000000000000
(145.025854) 2 484#0000000000000000
(145.032577) 2 080#
(145.032913) 2 381#6C4E0000FFFFFFFF
(145.033155) 2 382#7A710000FDFFFFFF
(145.033397) 2 383#423B000008000000
(145.034588) 2 401#6C4E000000000000
(145.034834) 2 402#7A71000000000000
(145.035080) 2 403#423B000000000000
(145.035332) 2 284#0000000000000000
(145.035582) 2 384#0000000000000000
(145.035834) 2 484#0000000000000000
(145.042577) 2 080#
(145.042911) 2 381#6C4E0000FDFFFFFF
(145.043154) 2 382#7A710000FFFFFFFF
(145.043396) 2 383#423B000003000000
(145.043512) 2 704#05
(145.044601) 2 401#6C4E000000000000
(145.044847) 2 402#7A71000000000000
(145.045092) 2 403#423B000000000000
(145.045345) 2 284#0000000000000000
(145.045595) 2 384#0000000000000000
(145.045847) 2 484#0000000000000000
(145.052578) 2 080#
(145.052910) 2 381#6C4E0000FDFFFFFF
(145.053153) 2 382#7A710000FDFFFFFF
(145.053397) 2 383#423B000006000000
(145.054592) 2 401#6C4E000000000000
(145.054837) 2 402#7A71000000000000
(145.055083) 2 403#423B000000000000
(145.055335) 2 284#0000000000000000
(145.055585) 2 384#0000000000000000
(145.055838) 2 484#0000000000000000
(145.062555) 2 080#
(145.062907) 2 381#6C4E0000FAFFFFFF
(145.063149) 2 382#7A71000007000000
(145.063393) 2 383#423B000004000000
(145.064598) 2 401#6C4E000000000000
(145.064844) 2 402#7A71000000000000
(145.065089) 2 403#423B000000000000
(145.065342) 2 284#0000000000000000
(145.065592) 2 384#0000000000000000
(145.065844) 2 484#0000000000000000
(145.072555) 2 080#
(145.072863) 2 381#6C4E0000FEFFFFFF
(145.073109) 2 382#7A71000002000000
(145.073353) 2 383#423B000004000000
(145.074544) 2 401#6C4E000000000000
(145.074790) 2 402#7A71000000000000
(145.075036) 2 403#423B000000000000
(145.075352) 2 284#0000000000000000
(145.075602) 2 384#0000000000000000
(145.075855) 2 484#0000000000000000
(145.082548) 2 080#
(145.082860) 2 381#6C4E0000FBFFFFFF
(145.083102) 2 382#7A710000FFFFFFFF
(145.083344) 2 383#413B0000FAFFFFFF
(145.084523) 2 401#6C4E000000000000
(145.084769) 2 402#7A71000000000000
(145.085014) 2 403#423B000000000000
(145.085308) 2 284#0000000000000000
(145.085559) 2 384#0000000000000000
(145.085811) 2 484#0000000000000000
(145.092548) 2 080#
(145.092856) 2 381#6D4E000001000000
(145.093100) 2 382#79710000FAFFFFFF
(145.093344) 2 383#423B00000D000000
(145.094611) 2 401#6C4E000000000000
(145.094857) 2 402#7A71000000000000
(145.095102) 2 403#423B000000000000
(145.095355) 2 284#0000000000000000
(145.095605) 2 384#0000000000000000
(145.095857) 2 484#0000000000000000
(145.102540) 2 080#
(145.102854) 2 381#6D4E000004000000
(145.103096) 2 382#7A710000FFFFFFFF
(145.103339) 2 383#423B000002000000
(145.104520) 2 401#6C4E000000000000
(145.104765) 2 402#7A71000000000000
(145.105011) 2 403#423B000000000000
(145.105295) 2 284#0000000000000000
(145.105545) 2 384#0000000000000000
(145.105798) 2 484#0000000000000000
(145.112543) 2 080#
(145.112853) 2 381#6C4E0000FDFFFFFF
(145.113097) 2 382#79710000FAFFFFFF
(145.113343) 2 383#413B0000F9FFFFFF
(145.114588) 2 401#6C4E000000000000
(145.114833) 2 402#7A71000000000000
(145.115079) 2 403#423B000000000000
(145.115349) 2 284#0000000000000000
(145.115600) 2 384#0000000000000000
(145.115852) 2 484#0000000000000000
(145.122523) 2 080#
(145.122849) 2 381#6C4E0000FCFFFFFF
(145.123091) 2 382#7A710000FDFFFFFF
(145.123333) 2 383#423B000002000000
(145.124572) 2 401#6C4E000000000000
(145.124818) 2 402#7A71000000000000
(145.125063) 2 403#423B000000000000
(145.125316) 2 284#0000000000000000
(145.125566) 2 384#0000000000000000
(145.125818) 2 484#0000000000000000
(145.132527) 2 080#
(145.132849) 2 381#6C4E000000000000
(145.133091) 2 382#79710000F9FFFFFF
(145.133335) 2 383#423B0000FFFFFFFF
(145.134509) 2 401#6C4E000000000000
(145.134754) 2 402#7A71000000000000
(145.135000) 2 403#423B000000000000
(145.135340) 2 284#0000000000000000
(145.135590) 2 384#0000000000000000
(145.135843) 2 484#0000000000000000
(145.142516) 2 080#
(145.142848) 2 381#6C4E0000FFFFFFFF
(145.143090) 2 382#7A71000000000000
(145.143336) 2 383#413B0000F9FFFFFF
(145.144513) 2 401#6C4E000000000000
(145.144759) 2 402#7A71000000000000
(145.145004) 2 403#423B000000000000
(145.145321) 2 284#0000000000000000
(145.145571) 2 384#0000000000000000
(145.145823) 2 484#0000000000000000
(145.152532) 2 080#
(145.152846) 2 381#6D4E000002000000
(145.153090) 2 382#79710000FAFFFFFF
(145.153336) 2 383#413B0000F9FFFFFF
(145.154518) 2 401#6C4E000000000000
(145.154763) 2 402#7A71000000000000
(145.155009) 2 403#423B000000000000
(145.155349) 2 284#0000000000000000
(145.155599) 2 384#0000000000000000
(145.155852) 2 484#0000000000000000
(145.162497) 2 080#
(145.162845) 2 381#6C4E000000000000
(145.163087) 2 382#7A710000FFFFFFFF
(145.163331) 2 383#423B000004000000
(145.164546) 2 401#6C4E000000000000
(145.164792) 2 402#7A71000000000000
(145.165037) 2 403#423B000000000000
(145.165332) 2 284#0000000000000000
(145.165582) 2 384#0000000000000000
(145.165834) 2 484#0000000000000000
(145.172503) 2 080#
(145.172831) 2 381#6D4E000002000000
(145.173073) 2 382#79710000F9FFFFFF
(145.173318) 2 383#413B0000FCFFFFFF
(145.174497) 2 401#6C4E000000000000
(145.174742) 2 402#7A71000000000000
(145.174988) 2 403#423B000000000000
(145.175334) 2 284#0000000000000000
(145.175584) 2 384#0000000000000000
(145.175837) 2 484#0000000000000000
(145.182496) 2 080#
(145.182830) 2 381#6C4E000000000000
(145.183076) 2 382#7A710000F8FFFFFF
(145.183320) 2 383#413B0000F7FFFFFF
(145.184519) 2 401#6C4E000000000000
(145.184765) 2 402#7A71000000000000
(145.185010) 2 403#423B000000000000
(145.185293) 2 284#0000000000000000
(145.185543) 2 384#0000000000000000
(145.185795) 2 484#0000000000000000
(145.192490) 2 080#
(145.192828) 2 381#6C4E000002000000
(145.193070) 2 382#7A710000FFFFFFFF
(145.193315) 2 383#413B0000FEFFFFFF
(145.194496) 2 401#6C4E000000000000
(145.194741) 2 402#7A71000000000000
(145.194987) 2 403#413B000000000000
(145.195347) 2 284#0000000000000000
(145.195597) 2 384#0000000000000000
(145.195850) 2 484#0000000000000000
(145.202487) 2 080#
(145.202821) 2 381#6C4E0000FAFFFFFF
(145.203065) 2 382#7A710000FAFFFFFF
(145.203309) 2 383#413B0000FCFFFFFF
(145.204490) 2 401#6C4E000000000000
(145.204736) 2 402#7A71000000000000
(145.204981) 2 403#413B000000000000
(145.205330) 2 284#0000000000000000
(145.205580) 2 384#0000000000000000
(145.205832) 2 484#0000000000000000
(145.212485) 2 080#
(145.212820) 2 381#6C4E0000FCFFFFFF
(145.213062) 2 382#7A710000FCFFFFFF
(145.213306) 2 383#413B0000F7FFFFFF
(145.214493) 2 401#6C4E000000000000
(145.214738) 2 402#7A71000000000000
(145.214984) 2 403#413B000000000000
(145.215337) 2 284#0000000000000000
(145.215587) 2 384#0000000000000000
(145.215839) 2 484#0000000000000000
(145.222474) 2 080#
(145.222818) 2 381#6D4E000003000000
(145.223058) 2 382#7A710000FEFFFFFF
(145.223300) 2 383#423B000001000000
(145.224480) 2 401#6C4E000000000000
(145.224725) 2 402#7A71000000000000
(145.224971) 2 403#413B000000000000
(145.225317) 2 284#0000000000000000
(145.225567) 2 384#0000000000000000
(145.225820) 2 484#0000000000000000
(145.232471) 2 080#
(145.232807) 2 381#6D4E000003000000
(145.233047) 2 382#7A710000FEFFFFFF
(145.233289) 2 383#413B0000F8FFFFFF
(145.234472) 2 401#6C4E000000000000
(145.234718) 2 402#7A71000000000000
(145.234963) 2 403#413B000000000000
(145.235344) 2 284#0000000000000000
(145.235594) 2 384#0000000000000000
(145.235846) 2 484#0000000000000000
(145.242459) 2 080#
(145.242803) 2 381#6C4E0000FCFFFFFF
(145.243048) 2 382#79710000FBFFFFFF
(145.243292) 2 383#413B0000FEFFFFFF
(145.243408) 2 704#05
(145.244487) 2 401#6C4E000000000000
(145.244733) 2 402#7A71000000000000
(145.244978) 2 403#413B000000000000
(145.245335) 2 284#0000000000000000
(145.245585) 2 384#0000000000000000
(145.245837) 2 484#0000000000000000
(145.252461) 2 080#
(145.252767) 2 381#6D4E000004000000
(145.253009) 2 382#7A71000000000000
(145.253253) 2 383#423B0000FEFFFFFF
(145.254436) 2 401#6D4E000000000000
(145.254682) 2 402#7A71000000000000
(145.254927) 2 403#413B000000000000
(145.255292) 2 284#0000000000000000
(145.255542) 2 384#0000000000000000
(145.255794) 2 484#0000000000000000
(145.262449) 2 080#
(145.262763) 2 381#6C4E000000000000
(145.263006) 2 382#7A710000FFFFFFFF
(145.263248) 2 383#423B000000000000
(145.264419) 2 401#6D4E000000000000
(145.264664) 2 402#7A71000000000000
(145.264910) 2 403#413B000000000000
(145.265346) 2 284#0000000000000000
(145.265597) 2 384#0000000000000000
(145.265849) 2 484#0000000000000000
(145.272446) 2 080#
(145.272758) 2 381#6C4E0000F8FFFFFF
(145.273000) 2 382#7A710000FFFFFFFF
(145.273242) 2 383#413B0000F8FFFFFF
(145.274451) 2 401#6C4E000000000000
(145.274697) 2 402#7A71000000000000
(145.274943) 2 403#413B000000000000
(145.275307) 2 284#0000000000000000
(145.275557) 2 384#0000000000000000
(145.275809) 2 484#0000000000000000
(145.282441) 2 080#
(145.282759) 2 381#6C4E000000000000
(145.283003) 2 382#7A71000004000000
(145.283245) 2 383#423B000002000000
(145.284484) 2 401#6C4E000000000000
(145.284729) 2 402#7A71000000000000
(145.284975) 2 403#413B000000000000
(145.285289) 2 284#0000000000000000
(145.285540) 2 384#0000000000000000
(145.285792) 2 484#0000000000000000
(145.292441) 2 080#
(145.292755) 2 381#6D4E000003000000
(145.292997) 2 382#7A710000FDFFFFFF
(145.293241) 2 383#423B0000FEFFFFFF
(145.294420) 2 401#6C4E000000000000
(145.294666) 2 402#7A71000000000000
(145.294911) 2 403#413B000000000000
(145.295342) 2 284#0000000000000000
(145.295592) 2 384#0000000000000000
(145.295844) 2 484#0000000000000000
(145.302426) 2 080#
(145.302754) 2 381#6C4E0000FEFFFFFF
(145.302996) 2 382#7A710000FFFFFFFF
(145.303236) 2 383#423B000005000000
(145.304425) 2 401#6C4E000000000000
(145.304671) 2 402#7A71000000000000
(145.304916) 2 403#423B000000000000
(145.305323) 2 284#0000000000000000
(145.305573) 2 384#0000000000000000
(145.305825) 2 484#0000000000000000
(145.312430) 2 080#
(145.312753) 2 381#6C4E0000FBFFFFFF
(145.312993) 2 382#7A71000001000000
(145.313235) 2 383#423B000002000000
(145.314484) 2 401#6C4E000000000000
(145.314729) 2 402#7A71000000000000
(145.314975) 2 403#423B000000000000
(145.315305) 2 284#0000000000000000
(145.315556) 2 384#0000000000000000
(145.315808) 2 484#0000000000000000
(145.322409) 2 080#
(145.322751) 2 381#6C4E000000000000
(145.322991) 2 382#79710000FCFFFFFF
(145.323233) 2 383#413B0000F8FFFFFF
(145.324416) 2 401#6C4E000000000000
(145.324662) 2 402#7A71000000000000
(145.324907) 2 403#423B000000000000
(145.325288) 2 284#0000000000000000
(145.325538) 2 384#0000000000000000
(145.325790) 2 484#0000000000000000
(145.332418) 2 080#
(145.332744) 2 381#6C4E000000000000
(145.332984) 2 382#7A710000FEFFFFFF
(145.333226) 2 383#423B000000000000
(145.334395) 2 401#6C4E000000000000
(145.334641) 2 402#7A71000000000000
(145.334886) 2 403#423B000000000000
(145.335341) 2 284#0000000000000000
(145.335591) 2 384#0000000000000000
(145.335843) 2 484#0000000000000000
(145.342411) 2 080#
(145.342738) 2 381#6C4E0000FAFFFFFF
(145.342981) 2 382#7A710000FCFFFFFF
(145.343225) 2 383#413B0000FFFFFFFF
(145.344392) 2 401#6C4E000000000000
(145.344637) 2 402#7A71000000000000
(145.344883) 2 403#423B000000000000
(145.345323) 2 284#0000000000000000
(145.345574) 2 384#0000000000000000
(145.345826) 2 484#0000000000000000
(145.352403) 2 080#
(145.352741) 2 381#6C4E0000FBFFFFFF
(145.352983) 2 382#7A710000FDFFFFFF
(145.353226) 2 383#423B000002000000
(145.354413) 2 401#6C4E000000000000
(145.354658) 2 402#7A71000000000000
(145.354904) 2 403#423B000000000000
(145.355328) 2 284#0000000000000000
(145.355578) 2 384#0000000000000000
(145.355831) 2 484#0000000000000000
(145.362398) 2 080#
(145.362736) 2 381#6C4E0000FDFFFFFF
(145.362978) 2 382#79710000F9FFFFFF
(145.363218) 2 383#423B000005000000
(145.364394) 2 401#6C4E000000000000
(145.364639) 2 402#7A71000000000000
(145.364885) 2 403#423B000000000000
(145.365285) 2 284#0000000000000000
(145.365535) 2 384#0000000000000000
(145.365788) 2 484#0000000000000000
(145.372391) 2 080#
(145.372733) 2 381#6D4E000005000000
(145.372975) 2 382#7A710000FCFFFFFF
(145.373217) 2 383#423B000002000000
(145.374402) 2 401#6C4E000000000000
(145.374648) 2 402#7A71000000000000
(145.374893) 2 403#423B000000000000
(145.375340) 2 284#0000000000000000
(145.375590) 2 384#0000000000000000
(145.375842) 2 484#0000000000000000
(145.382382) 2 080#
(145.382724) 2 381#6D4E000003000000
(145.382968) 2 382#7A71000005000000
(145.383210) 2 383#413B0000FAFFFFFF
(145.384423) 2 401#6C4E000000000000
(145.384669) 2 402#7A71000000000000
(145.384914) 2 403#423B000000000000
(145.385322) 2 284#0000000000000000
(145.385573) 2 384#0000000000000000
(145.385825) 2 484#0000000000000000
(145.392382) 2 080#
(145.392716) 2 381#6C4E000000000000
(145.392957) 2 382#7A710000FEFFFFFF
(145.393203) 2 383#413B0000FDFFFFFF
(145.394380) 2 401#6C4E000000000000
(145.394625) 2 402#7A71000000000000
(145.394871) 2 403#423B000000000000
(145.395327) 2 284#0000000000000000
(145.395578) 2 384#0000000000000000
(145.395830) 2 484#0000000000000000
(145.402395) 2 080#
(145.402717) 2 381#6C4E0000FBFFFFFF
(145.402957) 2 382#7A71000001000000
(145.403201) 2 383#413B0000FFFFFFFF
(145.404424) 2 401#6C4E000000000000
(145.404670) 2 402#7A71000000000000
(145.404916) 2 403#423B000000000000
(145.405284) 2 284#0000000000000000
(145.405534) 2 384#0000000000000000
(145.405787) 2 484#0000000000000000
(145.412376) 2 080#
(145.412714) 2 381#6C4E0000FDFFFFFF
(145.412958) 2 382#79710000FBFFFFFF
(145.413200) 2 383#423B000000000000
(145.414367) 2 401#6C4E000000000000
(145.414613) 2 402#7A71000000000000
(145.414858) 2 403#423B000000000000
(145.415337) 2 284#0000000000000000
(145.415587) 2 384#0000000000000000
(145.415839) 2 484#0000000000000000
(145.422365) 2 080#
(145.422709) 2 381#6C4E0000FDFFFFFF
(145.422949) 2 382#7A710000FEFFFFFF
(145.423191) 2 383#413B0000F4FFFFFF
(145.424406) 2 401#6C4E000000000000
(145.424652) 2 402#7A71000000000000
(145.424897) 2 403#423B000000000000
(145.425324) 2 284#0000000000000000
(145.425574) 2 384#0000000000000000
(145.425826) 2 484#0000000000000000
(145.432362) 2 080#
(145.432672) 2 381#6C4E000000000000
(145.432912) 2 382#7A710000FEFFFFFF
(145.433154) 2 383#413B0000F8FFFFFF
(145.434335) 2 401#6C4E000000000000
(145.434581) 2 402#7A71000000000000
(145.434826) 2 403#413B000000000000
(145.435331) 2 284#0000000000000000
(145.435581) 2 384#0000000000000000
(145.435833) 2 484#0000000000000000
(145.442351) 2 080#
(145.442665) 2 381#6C4E000002000000
(145.442909) 2 382#79710000FBFFFFFF
(145.443151) 2 383#423B000000000000
(145.443267) 2 704#05
(145.444345) 2 401#6C4E000000000000
(145.444590) 2 402#7A71000000000000
(145.444836) 2 403#423B000000000000
(145.445318) 2 284#0000000000000000
(145.445568) 2 384#0000000000000000
(145.445821) 2 484#0000000000000000
(145.452348) 2 080#
(145.452662) 2 381#6C4E000002000000
(145.452904) 2 382#7A71000000000000
(145.453150) 2 383#413B0000FDFFFFFF
(145.454349) 2 401#6C4E000000000000
(145.454595) 2 402#7A71000000000000
(145.454840) 2 403#413B000000000000
(145.455301) 2 284#0000000000000000
(145.455551) 2 384#0000000000000000
(145.455803) 2 484#0000000000000000
(145.462337) 2 080#
(145.462661) 2 381#6D4E000003000000
(145.462903) 2 382#79710000FDFFFFFF
(145.463145) 2 383#423B000000000000
(145.464324) 2 401#6C4E000000000000
(145.464570) 2 402#7A71000000000000
(145.464815) 2 403#423B000000000000
(145.465286) 2 284#0000000000000000
(145.465536) 2 384#0000000000000000
(145.465788) 2 484#0000000000000000
(145.472336) 2 080#
(145.472656) 2 381#6C4E0000FAFFFFFF
(145.472896) 2 382#7A71000003000000
(145.473138) 2 383#423B000001000000
(145.474373) 2 401#6C4E000000000000
(145.474618) 2 402#7A71000000000000
(145.474864) 2 403#423B000000000000
(145.475338) 2 284#0000000000000000
(145.475589) 2 384#0000000000000000
(145.475841) 2 484#0000000000000000
(145.482329) 2 080#
(145.482657) 2 381#6D4E000005000000
(145.482897) 2 382#7A71000001000000
(145.483139) 2 383#423B000003000000
(145.484320) 2 401#6C4E000000000000
(145.484566) 2 402#7A71000000000000
(145.484811) 2 403#423B000000000000
(145.485322) 2 284#0000000000000000
(145.485572) 2 384#0000000000000000
(145.485824) 2 484#0000000000000000
(145.492328) 2 080#
(145.492656) 2 381#6C4E000000000000
(145.492898) 2 382#7A71000000000000
(145.493142) 2 383#413B0000F5FFFFFF
(145.494319) 2 401#6C4E000000000000
(145.494565) 2 402#7A71000000000000
(145.494810) 2 403#413B000000000000
(145.495325) 2 284#0000000000000000
(145.495575) 2 384#0000000000000000
(145.495827) 2 484#0000000000000000
(145.502319) 2 080#
(145.502653) 2 381#6D4E000005000000
(145.502895) 2 382#79710000FDFFFFFF
(145.503137) 2 383#413B0000EDFFFFFF
(145.504310) 2 401#6C4E000000000000
(145.504556) 2 402#7A71000000000000
(145.504801) 2 403#413B000000000000
(145.505280) 2 284#0000000000000000
(145.505530) 2 384#0000000000000000
(145.505782) 2 484#0000000000000000
(145.512318) 2 080#
(145.512654) 2 381#6D4E000002000000
(145.512894) 2 382#7A71000003000000
(145.513138) 2 383#413B0000FCFFFFFF
(145.514315) 2 401#6C4E000000000000
(145.514560) 2 402#7A71000000000000
(145.514806) 2 403#413B000000000000
(145.515332) 2 284#0000000000000000
(145.515583) 2 384#0000000000000000
(145.515835) 2 484#0000000000000000
(145.522312) 2 080#
(145.522649) 2 381#6C4E000002000000
(145.522889) 2 382#7A71000001000000
(145.523133) 2 383#423B000004000000
(145.524380) 2 401#6C4E000000000000
(145.524625) 2 402#7A71000000000000
(145.524871) 2 403#423B000000000000
(145.525316) 2 284#0000000000000000
(145.525566) 2 384#0000000000000000
(145.525818) 2 484#0000000000000000
(145.532302) 2 080#
(145.532646) 2 381#6C4E0000F9FFFFFF
(145.532892) 2 382#7A71000002000000
(145.533136) 2 383#413B0000FCFFFFFF
(145.534327) 2 401#6C4E000000000000
(145.534572) 2 402#7A71000000000000
(145.534818) 2 403#413B000000000000
(145.535298) 2 284#0000000000000000
(145.535549) 2 384#0000000000000000
(145.535801) 2 484#0000000000000000
(145.542298) 2 080#
(145.542634) 2 381#6D4E000003000000
(145.542877) 2 382#7A710000FFFFFFFF
(145.543123) 2 383#413B000000000000
(145.544290) 2 401#6D4E000000000000
(145.544535) 2 402#7A71000000000000
(145.544781) 2 403#413B000000000000
(145.545281) 2 284#0000000000000000
(145.545532) 2 384#0000000000000000
(145.545784) 2 484#0000000000000000
(145.552289) 2 080#
(145.552631) 2 381#6C4E0000FEFFFFFF
(145.552874) 2 382#7A710000FCFFFFFF
(145.553114) 2 383#423B000005000000
(145.554291) 2 401#6D4E000000000000
(145.554537) 2 402#7A71000000000000
(145.554782) 2 403#423B000000000000
(145.555332) 2 284#0000000000000000
(145.555583) 2 384#0000000000000000
(145.555835) 2 484#0000000000000000
(145.562275) 2 080#
(145.562625) 2 381#6C4E0000FFFFFFFF
(145.562871) 2 382#7A71000002000000
(145.563113) 2 383#423B000003000000
(145.564324) 2 401#6D4E000000000000
(145.564570) 2 402#7A71000000000000
(145.564815) 2 403#423B000000000000
(145.565315) 2 284#0000000000000000
(145.565566) 2 384#0000000000000000
(145.565818) 2 484#0000000000000000
(145.572282) 2 080#
(145.572582) 2 381#6C4E0000FEFFFFFF
(145.572822) 2 382#79710000FCFFFFFF
(145.573064) 2 383#423B000001000000
(145.574243) 2 401#6D4E000000000000
(145.574489) 2 402#7A71000000000000
(145.574734) 2 403#423B000000000000
(145.575320) 2 284#0000000000000000
(145.575571) 2 384#0000000000000000
(145.575823) 2 484#0000000000000000
(145.582277) 2 080#
(145.582579) 2 381#6C4E0000F8FFFFFF
(145.582819) 2 382#7A710000FEFFFFFF
(145.583063) 2 383#413B0000FEFFFFFF
(145.584274) 2 401#6C4E000000000000
(145.584520) 2 402#7A71000000000000
(145.584765) 2 403#423B000000000000
(145.585280) 2 284#0000000000000000
(145.585530) 2 384#0000000000000000
(145.585782) 2 484#0000000000000000
(145.592276) 2 080#
(145.592580) 2 381#6C4E000000000000
(145.592820) 2 382#79710000FCFFFFFF
(145.593064) 2 383#413B0000F7FFFFFF
(145.594249) 2 401#6C4E000000000000
(145.594495) 2 402#7A71000000000000
(145.594740) 2 403#413B000000000000
(145.595333) 2 284#0000000000000000
(145.595583) 2 384#0000000000000000
(145.595835) 2 484#0000000000000000
(145.602267) 2 080#
(145.602575) 2 381#6C4E0000FDFFFFFF
(145.602815) 2 382#7A710000FEFFFFFF
(145.603059) 2 383#413B0000FFFFFFFF
(145.604228) 2 401#6C4E000000000000
(145.604474) 2 402#7A71000000000000
(145.604719) 2 403#413B000000000000
(145.605314) 2 284#0000000000000000
(145.605564) 2 384#0000000000000000
(145.605816) 2 484#0000000000000000
(145.612262) 2 080#
(145.612570) 2 381#6C4E0000F8FFFFFF
(145.612812) 2 382#79710000F9FFFFFF
(145.613056) 2 383#413B0000FFFFFFFF
(145.614237) 2 401#6C4E000000000000
(145.614483) 2 402#7A71000000000000
(145.614728) 2 403#413B000000000000
(145.615297) 2 284#0000000000000000
(145.615547) 2 384#0000000000000000
(145.615799) 2 484#0000000000000000
(145.622255) 2 080#
(145.622569) 2 381#6C4E0000FFFFFFFF
(145.622809) 2 382#7A710000FEFFFFFF
(145.623051) 2 383#423B000000000000
(145.624258) 2 401#6C4E000000000000
(145.624504) 2 402#7A71000000000000
(145.624750) 2 403#413B000000000000
(145.625280) 2 284#0000000000000000
(145.625530) 2 384#0000000000000000
(145.625782) 2 484#0000000000000000
(145.632250) 2 080#
(145.632568) 2 381#6C4E000000000000
(145.632810) 2 382#7A710000FCFFFFFF
(145.633054) 2 383#423B0000FFFFFFFF
(145.634325) 2 401#6C4E000000000000
(145.634571) 2 402#7A71000000000000
(145.634816) 2 403#423B000000000000
(145.635331) 2 284#0000000000000000
(145.635581) 2 384#0000000000000000
(145.635833) 2 484#0000000000000000
(145.642241) 2 080#
(145.642563) 2 381#6C4E0000FDFFFFFF
(145.642805) 2 382#79710000F9FFFFFF
(145.643047) 2 383#423B000000000000
(145.643164) 2 704#05
(145.644299) 2 401#6C4E000000000000
(145.644544) 2 402#7A71000000000000
(145.644790) 2 403#423B000000000000
(145.645276) 2 284#0000000000000000
(145.645527) 2 384#0000000000000000
(145.645779) 2 484#0000000000000000
(145.652261) 2 080#
(145.652567) 2 381#6C4E0000FDFFFFFF
(145.652809) 2 382#7A710000FFFFFFFF
(145.653055) 2 383#413B000000000000
(145.654224) 2 401#6C4E000000000000
(145.654470) 2 402#7A71000000000000
(145.654715) 2 403#423B000000000000
(145.655332) 2 284#0000000000000000
(145.655582) 2 384#0000000000000000
(145.655834) 2 484#0000000000000000
(145.662224) 2 080#
(145.662562) 2 381#6D4E000002000000
(145.662804) 2 382#7A710000FFFFFFFF
(145.663046) 2 383#423B000001000000
(145.664209) 2 401#6C4E000000000000
(145.664455) 2 402#7A71000000000000
(145.664701) 2 403#423B000000000000
(145.665317) 2 284#0000000000000000
(145.665567) 2 384#0000000000000000
(145.665819) 2 484#0000000000000000
(145.672227) 2 080#
(145.672555) 2 381#6C4E0000FDFFFFFF
(145.672797) 2 382#79710000F9FFFFFF
(145.673042) 2 383#413B0000FCFFFFFF
(145.674227) 2 401#6C4E000000000000
(145.674472) 2 402#7A71000000000000
(145.674718) 2 403#423B000000000000
(145.675324) 2 284#0000000000000000
(145.675574) 2 384#0000000000000000
(145.675827) 2 484#0000000000000000
(145.682222) 2 080#
(145.682555) 2 381#6C4E0000FDFFFFFF
(145.682799) 2 382#79710000FAFFFFFF
(145.683041) 2 383#423B0000FDFFFFFF
(145.684208) 2 401#6C4E000000000000
(145.684453) 2 402#7A71000000000000
(145.684699) 2 403#423B000000000000
(145.685327) 2 284#0000000000000000
(145.685578) 2 384#0000000000000000
(145.685830) 2 484#0000000000000000
(145.692214) 2 080#
(145.692554) 2 381#6D4E000004000000
(145.692794) 2 382#7A710000FEFFFFFF
(145.693036) 2 383#423B000000000000
(145.694231) 2 401#6C4E000000000000
(145.694477) 2 402#7A71000000000000
(145.694722) 2 403#423B000000000000
(145.695311) 2 284#0000000000000000
(145.695561) 2 384#0000000000000000
(145.695813) 2 484#0000000000000000
(145.702207) 2 080#
(145.702549) 2 381#6C4E0000FBFFFFFF
(145.702789) 2 382#7A71000003000000
(145.703033) 2 383#423B0000FEFFFFFF
(145.704216) 2 401#6C4E000000000000
(145.704462) 2 402#7A71000000000000
(145.704707) 2 403#423B000000000000
(145.705322) 2 284#0000000000000000
(145.705572) 2 384#0000000000000000
(145.705824) 2 484#0000000000000000
(145.712206) 2 080#
(145.712540) 2 381#6C4E0000FCFFFFFF
(145.712780) 2 382#79710000F7FFFFFF
(145.713025) 2 383#413B0000F5FFFFFF
(145.714210) 2 401#6C4E000000000000
(145.714455) 2 402#7A71000000000000
(145.714701) 2 403#423B000000000000
(145.715277) 2 284#0000000000000000
(145.715527) 2 384#0000000000000000
(145.715780) 2 484#0000000000000000
(145.722208) 2 080#
